# Hz S RI R 50
100000 1.000180125 -0.056535024
159365 0.995788633 -0.090388476
218730 0.99203217 -0.123935572
278095 0.987374424 -0.156806647
337460 0.981976151 -0.189625188
396825 0.975262045 -0.222427368
456190 0.9670313 -0.254562586
515555 0.958047449 -0.286666035
574920 0.948322594 -0.318270772
634285 0.937222599 -0.349735975
693650 0.924905121 -0.380423754
753015 0.911449491 -0.411025106
812380 0.897848784 -0.441012352
871745 0.882539391 -0.470646321
931110 0.866580426 -0.499484598
990475 0.849420905 -0.527792751
1049840 0.831625878 -0.555542409
1109205 0.812751173 -0.582436442
1168570 0.792800962 -0.609017133
1227935 0.77166891 -0.635275959
1287300 0.750371098 -0.6600371
1346665 0.727945506 -0.684399843
1406030 0.704951286 -0.708215415
1465395 0.680725276 -0.730763971
1524760 0.656427502 -0.752243876
1584125 0.631801068 -0.77401334
1643490 0.605550944 -0.794703781
1702855 0.578974127 -0.814105987
1762220 0.551147699 -0.832325875
1821585 0.523487031 -0.85019952
1880950 0.495280832 -0.865972518
1940315 0.467037737 -0.88226366
1999680 0.437602221 -0.896757185
2059045 0.407602459 -0.90997368
2118410 0.377406299 -0.922486186
2177775 0.346595585 -0.934776306
2237140 0.315354853 -0.945258736
2296505 0.284353733 -0.954475641
2355870 0.25317049 -0.962837278
2415235 0.221479296 -0.97051531
2474600 0.189217358 -0.976791739
2533965 0.156760469 -0.98243314
2593330 0.124615848 -0.987035095
2652695 0.092593111 -0.990576446
2712060 0.060034386 -0.991671442
2771425 0.028174808 -0.993592321
2830790 -0.00460912 -0.993006289
2890155 -0.037277545 -0.992464065
2949520 -0.069558501 -0.9897632
3008885 -0.101042188 -0.986723899
3068250 -0.13358961 -0.983038723
3127615 -0.165432587 -0.977672338
3186980 -0.197008326 -0.970873475
3246345 -0.228172317 -0.963329911
3305710 -0.259312957 -0.95538187
3365075 -0.289531975 -0.946273207
3424440 -0.320008128 -0.93567264
3483805 -0.349692076 -0.924535989
3543170 -0.379340708 -0.912225842
3602535 -0.4087601 -0.89893186
3661900 -0.436924427 -0.885109782
3721265 -0.465353816 -0.870105624
3780630 -0.493234217 -0.854366242
3839995 -0.519640326 -0.837371587
3899360 -0.546435117 -0.820312619
3958725 -0.572359383 -0.801883041
4018090 -0.5974949 -0.782334208
4077455 -0.622269451 -0.762544572
4136820 -0.645878314 -0.741309762
4196185 -0.669190824 -0.7201429
4255550 -0.69109708 -0.69765383
4314915 -0.713219583 -0.674898803
4374280 -0.733894586 -0.651428818
4433645 -0.753934025 -0.62707585
4493010 -0.773403525 -0.602464258
4552375 -0.791760921 -0.576948106
4611740 -0.809196949 -0.550886988
4671105 -0.826129138 -0.524820566
4730470 -0.841850459 -0.497575014
4789835 -0.856903553 -0.470368206
4849200 -0.87084037 -0.442241549
4908565 -0.884190976 -0.41417405
4967930 -0.896356046 -0.3856664
5027295 -0.907663285 -0.356603384
5086660 -0.91806674 -0.327179074
5146025 -0.92752999 -0.297798365
5205390 -0.935892462 -0.26799041
5264755 -0.94344294 -0.238074883
5324120 -0.949985027 -0.207579106
5383485 -0.955626189 -0.177298605
5442850 -0.960248649 -0.146645054
5502215 -0.963999629 -0.116148702
5561580 -0.966680467 -0.085244499
5620945 -0.968441545 -0.05438739
5680310 -0.969228386 -0.023871947
5739675 -0.969007015 0.007066185
5799040 -0.967591762 0.037699546
5858405 -0.965469121 0.068313986
5917770 -0.962274968 0.099020279
5977135 -0.958635509 0.129408508
6036500 -0.953598678 0.159568801
6095865 -0.947451114 0.189371556
6155230 -0.941178619 0.219409868
6214595 -0.934070587 0.2487057
6273960 -0.926462888 0.277403384
6333325 -0.917798936 0.306343346
6392690 -0.909374654 0.335284143
6452055 -0.898221433 0.363926798
6511420 -0.885253429 0.393070667
6570785 -0.870509564 0.421965837
6630150 -0.855368137 0.449352115
6689515 -0.839345753 0.475859314
6748880 -0.822128653 0.501763582
6808245 -0.805268347 0.527300238
6867610 -0.787222325 0.552616953
6926975 -0.768621265 0.577180027
6986340 -0.749143362 0.601008236
7045705 -0.729539453 0.62451595
7105070 -0.708873569 0.646872878
7164435 -0.687550544 0.668931305
7223800 -0.665319204 0.6900146
7283165 -0.642904162 0.710489332
7342530 -0.619504392 0.730401337
7401895 -0.595448851 0.749136388
7461260 -0.570461392 0.767505884
7520625 -0.545533001 0.784990787
7579990 -0.520188689 0.802119135
7639355 -0.494245737 0.818257033
7698720 -0.46707949 0.832953214
7758085 -0.440689176 0.847227871
7817450 -0.412746429 0.860767483
7876815 -0.384683042 0.872667908
7936180 -0.356141209 0.884385645
7995545 -0.32766366 0.895694911
8054910 -0.29894647 0.904896497
8114275 -0.269607365 0.914149701
8173640 -0.239769712 0.922573566
8233005 -0.210345298 0.929336071
8292370 -0.179924786 0.935735583
8351735 -0.149186804 0.940997838
8411100 -0.118789464 0.945124924
8470465 -0.088576443 0.94874233
8529830 -0.057947315 0.950791597
8589195 -0.027043178 0.951527297
8648560 0.004026389 0.951628923
8707925 0.03485975 0.951544582
8767290 0.065734729 0.950225353
8826655 0.096308358 0.946977019
8886020 0.127307325 0.943361639
8945385 0.157758533 0.938548326
9004750 0.188159063 0.933079302
9064115 0.21790339 0.926841199
9123480 0.248116403 0.918998956
9182845 0.277783334 0.910820662
9242210 0.307580471 0.901439368
9301575 0.336348295 0.890341877
9360940 0.365320116 0.879239678
9420305 0.394027858 0.867324709
9479670 0.421864181 0.853447318
9539035 0.449587702 0.839692711
9598400 0.477091252 0.824320793
9657765 0.503526628 0.808231234
9717130 0.529721915 0.791372895
9776495 0.555468678 0.773829996
9835860 0.580287635 0.755625307
9895225 0.604592144 0.735791325
9954590 0.62864232 0.715893149
10013955 0.651624739 0.694968104
10073320 0.674168825 0.673366665
10132685 0.695855855 0.650898516
10192050 0.716784715 0.627647638
10251415 0.737262189 0.604126632
10310780 0.756495952 0.579538643
10370145 0.775212705 0.554585516
10429510 0.793008387 0.528790652
10488875 0.809897184 0.502624154
10548240 0.826082229 0.475890934
10607605 0.841480791 0.448596149
10666970 0.855681836 0.420584589
10726335 0.869022071 0.392462015
10785700 0.881600856 0.363775938
10845065 0.893221676 0.334730446
10904430 0.903679788 0.305096715
10963795 0.913451492 0.27542442
11023160 0.921831369 0.245138183
11082525 0.929553687 0.214726909
11141890 0.936252117 0.184396326
11201255 0.941613674 0.153581947
11260620 0.946247339 0.122449681
11319985 0.950029671 0.091099083
11379350 0.95281291 0.060118328
11438715 0.954181671 0.028829809
11498080 0.954869389 -0.00240074
11557445 0.95411098 -0.033606186
11616810 0.952687323 -0.065187916
11676175 0.94991368 -0.095809265
11735540 0.94602704 -0.127386018
11794905 0.941440522 -0.15812084
11854270 0.936322033 -0.189028188
11913635 0.929283678 -0.219555124
11973000 0.921754419 -0.249960109
12032365 0.9128986 -0.280147194
12091730 0.903755128 -0.30951032
12151095 0.892759978 -0.339040726
12210460 0.881096422 -0.368481904
12269825 0.868930339 -0.397069394
12329190 0.855423331 -0.42485094
12388555 0.84087032 -0.453058242
12447920 0.825521588 -0.480348676
12507285 0.810020625 -0.506726086
12566650 0.793019413 -0.532860219
12626015 0.774976253 -0.558295369
12685380 0.755933463 -0.583696782
12744745 0.736924886 -0.60770905
12804110 0.716612696 -0.631222188
12863475 0.695570349 -0.654042124
12922840 0.673774003 -0.676771342
12982205 0.651326298 -0.698422014
13041570 0.628386199 -0.719184041
13100935 0.604611515 -0.739241421
13160300 0.580175697 -0.758399307
13219665 0.555579304 -0.776702165
13279030 0.529429733 -0.793685853
13338395 0.503454208 -0.811160385
13397760 0.477126926 -0.826678574
13457125 0.450056672 -0.841279208
13516490 0.422145843 -0.854917585
13575855 0.394179046 -0.868611335
13635220 0.366309493 -0.88053441
13694585 0.337730377 -0.891595184
13753950 0.308564215 -0.902372717
13813315 0.279003351 -0.911891818
13872680 0.24966754 -0.920321583
13932045 0.219855755 -0.927491664
13991410 0.189372822 -0.933808982
14050775 0.159206911 -0.938996732
14110140 0.128671661 -0.943511545
14169505 0.098638877 -0.946708142
14228870 0.067708022 -0.949294447
14288235 0.037501096 -0.950717568
14347600 0.006925399 -0.951575636
14406965 -0.023580512 -0.950797975
14466330 -0.054316271 -0.949320435
14525695 -0.084694936 -0.946684837
14585060 -0.115000039 -0.943359732
14644425 -0.144979134 -0.939256072
14703790 -0.175188928 -0.933691918
14763155 -0.204657435 -0.927236437
14822520 -0.234295547 -0.919691503
14881885 -0.263567656 -0.912059605
14941250 -0.292448252 -0.902581512
15000615 -0.320994883 -0.892367422
15059980 -0.348829478 -0.881490588
15119345 -0.377255439 -0.869423508
15178710 -0.404607176 -0.856725573
15238075 -0.431284338 -0.843231201
15297440 -0.457869231 -0.828618466
15356805 -0.484001427 -0.813472926
15416170 -0.509359955 -0.797102272
15475535 -0.534303009 -0.780393719
15534900 -0.558676064 -0.762467503
15594265 -0.582657873 -0.744297981
15653630 -0.605677545 -0.725092232
15712995 -0.628412425 -0.705197215
15772360 -0.65027213 -0.684524118
15831725 -0.671355247 -0.663183093
15891090 -0.691678881 -0.641301155
15950455 -0.711719632 -0.618627607
16009820 -0.730627536 -0.595407366
16069185 -0.749028861 -0.571790516
16128550 -0.766333758 -0.547577679
16187915 -0.783486604 -0.522860288
16247280 -0.799393892 -0.49723351
16306645 -0.814447939 -0.471755176
16366010 -0.828979134 -0.445336252
16425375 -0.842610955 -0.418744117
16484740 -0.855232179 -0.391628235
16544105 -0.867274641 -0.364218562
16603470 -0.878165185 -0.336408376
16662835 -0.888435184 -0.308174222
16722200 -0.897300958 -0.279753744
16781565 -0.905844211 -0.250708013
16840930 -0.913295686 -0.221820086
16900295 -0.919374108 -0.19265531
16959660 -0.924848973 -0.16305834
17019025 -0.929606795 -0.133447915
17078390 -0.932967782 -0.10408952
17137755 -0.935782968 -0.074383154
17197120 -0.937399208 -0.044548951
17256485 -0.938064157 -0.0143572
17315850 -0.937988042 0.01560554
17375215 -0.936817288 0.045405764
17434580 -0.93435806 0.075080983
17493945 -0.931573092 0.104623399
17553310 -0.927214443 0.134415939
17612675 -0.922485053 0.164230436
17672040 -0.916133224 0.193192183
17731405 -0.909857988 0.222388058
17790770 -0.901754081 0.251121401
17850135 -0.893399 0.280118405
17909500 -0.88346821 0.307942003
17968865 -0.8732872 0.336398541
18028230 -0.862033247 0.363670289
18087596 -0.849727571 0.391366302
18146961 -0.836661159 0.418122768
18206326 -0.822477102 0.444578766
18265691 -0.807730793 0.470856696
18325056 -0.791998386 0.496040046
18384421 -0.775252938 0.520771682
18443786 -0.758381426 0.545554757
18503151 -0.740113437 0.569944322
18562516 -0.721170961 0.592662632
18621881 -0.701757192 0.61600089
18681246 -0.681351959 0.638103187
18740611 -0.66021043 0.659356474
18799976 -0.638321876 0.680165648
18859341 -0.616092205 0.700092315
18918706 -0.593545436 0.719794213
18978071 -0.569839715 0.738407671
19037436 -0.545647978 0.756195187
19096801 -0.520565748 0.772978842
19156166 -0.495469331 0.788804292
19215531 -0.469889581 0.80464214
19274896 -0.443519651 0.819246947
19334261 -0.416829019 0.833153784
19393626 -0.389048337 0.846049845
19452991 -0.361389726 0.85774064
19512356 -0.333385407 0.86913675
19571721 -0.305057048 0.87903124
19631086 -0.27652648 0.888406574
19690451 -0.247328564 0.89707446
19749816 -0.218200415 0.904644668
19809181 -0.188690662 0.911258339
19868546 -0.158569395 0.916568458
19927911 -0.128931254 0.920995175
19987276 -0.098932877 0.925094127
20046641 -0.068626679 0.92731446
20106006 -0.03856147 0.928869605
20165371 -0.008637921 0.929543018
20224736 0.022008961 0.929286956
20284101 0.052490212 0.928187549
20343466 0.08281672 0.92530477
20402831 0.112382724 0.922344803
20462196 0.142754063 0.918211221
20521561 0.172705769 0.912739217
20580926 0.202132731 0.906729578
20640291 0.231935545 0.899475634
20699656 0.260742783 0.891497433
20759021 0.290059804 0.882143557
20818386 0.3185952 0.872294962
20877751 0.346756577 0.861663341
20937116 0.374944895 0.849404215
20996481 0.402518838 0.836714386
21055846 0.429366677 0.823106944
21115211 0.456156939 0.808124005
21174576 0.482409954 0.793039619
21233941 0.508093714 0.776993453
21293306 0.533161163 0.759869456
21352671 0.557972252 0.741925418
21412036 0.581839025 0.723189353
21471401 0.605244457 0.703717052
21530766 0.627948462 0.683439195
21590131 0.649661481 0.662575125
21649496 0.671229004 0.640949726
21708861 0.691753208 0.618592083
21768226 0.711611032 0.595619916
21827591 0.730847418 0.572028756
21886956 0.748911321 0.547808647
21946321 0.766450285 0.523041903
22005686 0.783060967 0.497630625
22065051 0.79883027 0.471846431
22124416 0.813807368 0.445365995
22183781 0.828229904 0.418361753
22243146 0.841459512 0.391177147
22302511 0.853767275 0.363483071
22361876 0.864877164 0.335331201
22421241 0.875585615 0.307160645
22480606 0.884791374 0.278220534
22539971 0.89358294 0.249218553
22599336 0.901139974 0.219915375
22658701 0.908033251 0.190350249
22718066 0.913599908 0.160805895
22777431 0.918334126 0.130910798
22836796 0.921919941 0.10089454
22896161 0.925127267 0.070690549
22955526 0.92674297 0.04079622
23014891 0.927548468 0.010520818
23074256 0.927226364 -0.019771704
23133621 0.926153004 -0.049827624
23192986 0.923861324 -0.079874597
23252351 0.920591115 -0.109748341
23311716 0.916634678 -0.139603078
23371081 0.911782145 -0.169622018
23430446 0.905858218 -0.198868602
23489811 0.898403406 -0.227966368
23549176 0.891019582 -0.257152825
23608541 0.881923377 -0.285871446
23667906 0.872128605 -0.313901782
23727271 0.861744999 -0.341869503
23786636 0.850195229 -0.369506806
23846001 0.837573051 -0.397240817
23905366 0.824176371 -0.423369407
23964731 0.810233533 -0.449765443
24024096 0.79519093 -0.475436717
24083460 0.779424071 -0.500949442
24142825 0.762587964 -0.525969982
24202190 0.745813846 -0.550103247
24261555 0.727578759 -0.573995113
24320920 0.708797574 -0.597165822
24380285 0.689512133 -0.61953473
24439650 0.669288873 -0.641389906
24499015 0.648440062 -0.662779271
24558380 0.626984417 -0.683023035
24617745 0.60472387 -0.702764809
24677110 0.582091391 -0.72216314
24736475 0.558883011 -0.74030137
24795840 0.534926354 -0.757687628
24855205 0.510282933 -0.774406075
24914570 0.485078603 -0.790567338
24973935 0.45986399 -0.805487632
25033300 0.433930844 -0.819872736
25092665 0.407644242 -0.833571434
25152030 0.381088942 -0.846114635
25211395 0.35375449 -0.857180356
25270760 0.326329946 -0.868684053
25330125 0.298796176 -0.878588199
25389490 0.270502537 -0.887509703
25448855 0.242324277 -0.89546138
25508220 0.213697731 -0.902957022
25567585 0.185150966 -0.909207224
25626950 0.156072303 -0.914498746
25686315 0.127122923 -0.918829321
25745680 0.097841478 -0.922303497
25805045 0.068694077 -0.924911081
25864410 0.03954083 -0.926570296
25923775 0.01008207 -0.927153766
25983140 -0.019212001 -0.927084028
26042505 -0.048420395 -0.925869345
26101870 -0.077833883 -0.923782169
26161235 -0.106719702 -0.920765459
26220600 -0.135728582 -0.916758775
26279965 -0.164635673 -0.911862552
26339330 -0.193355798 -0.906442999
26398695 -0.221792891 -0.899520039
26458060 -0.250240087 -0.891779243
26517425 -0.27789396 -0.883627176
26576790 -0.305660963 -0.874100565
26636155 -0.333028644 -0.863732635
26695520 -0.360089689 -0.852983295
26754885 -0.386861324 -0.84097588
26814250 -0.412866204 -0.828103303
26873615 -0.438784301 -0.814563572
26932980 -0.464460492 -0.800115704
26992345 -0.488895893 -0.785082697
27051710 -0.51342535 -0.768898546
27111075 -0.537319362 -0.752328455
27170440 -0.560652732 -0.734761774
27229805 -0.583600819 -0.716730952
27289170 -0.605558156 -0.697688579
27348535 -0.626943171 -0.6781677
27407900 -0.647976875 -0.657899618
27467265 -0.66840738 -0.636866867
27526630 -0.687733292 -0.615365862
27585995 -0.706745862 -0.592999279
27645360 -0.72514081 -0.570272326
27704725 -0.742513835 -0.547042727
27764090 -0.759135782 -0.523179292
27823455 -0.775121629 -0.49850139
27882820 -0.790269434 -0.473593652
27942185 -0.804535984 -0.448346406
28001550 -0.818178117 -0.42237395
28060915 -0.831030249 -0.396183103
28120280 -0.842916846 -0.36942014
28179645 -0.853881657 -0.342544257
28239010 -0.864090502 -0.315184712
28298375 -0.873399972 -0.287181407
28357740 -0.881588816 -0.259651809
28417105 -0.889229059 -0.231262832
28476470 -0.89568746 -0.203007817
28535835 -0.901586353 -0.17406851
28595200 -0.906225562 -0.145515128
28654565 -0.9102149 -0.116414815
28713930 -0.913270056 -0.087475769
28773295 -0.914826929 -0.058157738
28832660 -0.916358828 -0.028971051
28892025 -0.916294157 0.000174771
28951390 -0.915320992 0.029674857
29010755 -0.913694441 0.058741424
29070120 -0.911278188 0.087946258
29129485 -0.907447755 0.117094114
29188850 -0.903070986 0.145790651
29248215 -0.89769721 0.174868524
29307580 -0.891242921 0.203267201
29366945 -0.883586049 0.231877669
29426310 -0.875709056 0.260051459
29485675 -0.866413593 0.2880207
29545040 -0.856240808 0.315780401
29604405 -0.845688521 0.343043237
29663770 -0.833964407 0.369961202
29723135 -0.821179032 0.396413832
29782500 -0.807513296 0.422902613
29841865 -0.79310888 0.448451071
29901230 -0.77793622 0.473473101
29960595 -0.76194638 0.498353928
30019960 -0.744876861 0.522774577
30079324 -0.727846682 0.546491444
30138689 -0.709469258 0.569642007
30198054 -0.690348148 0.592089414
30257419 -0.670150578 0.614050805
30316784 -0.649792134 0.635509967
30376149 -0.628589749 0.655959367
30435514 -0.606468379 0.675853252
30494879 -0.583991825 0.695018053
30554244 -0.560773968 0.713693737
30613609 -0.537147462 0.731472015
30672974 -0.512709259 0.748220503
30732339 -0.48805952 0.764663696
30791704 -0.46260339 0.779689013
30851069 -0.436575531 0.794003009
30910434 -0.4099918 0.807872533
30969799 -0.383283793 0.820652425
31029164 -0.356053113 0.832691907
31088529 -0.328252166 0.84355092
31147894 -0.300360947 0.85368812
31207259 -0.272114932 0.862936258
31266624 -0.243324622 0.87100166
31325989 -0.214561343 0.878141224
31385354 -0.185430973 0.884774506
31444719 -0.156156897 0.889755666
31504084 -0.126694306 0.894790112
31563449 -0.097059361 0.898092508
31622814 -0.067240871 0.900672554
31682179 -0.037304479 0.902235984
31741544 -0.007637444 0.902983903
31800909 0.022245995 0.902326226
31860274 0.052113782 0.900896549
31919639 0.081806734 0.898609757
31979004 0.111526697 0.895141005
32038369 0.140865206 0.89078772
32097734 0.170292913 0.885429918
32157099 0.199692174 0.879418671
32216464 0.22868739 0.87231332
32275829 0.257569372 0.864262282
32335194 0.285854697 0.855499923
32394559 0.314259678 0.845680177
32453924 0.342161923 0.834579944
32513289 0.369535267 0.823152661
32572654 0.396859288 0.810743927
32632019 0.423480182 0.797124564
32691384 0.449736058 0.782679975
32750749 0.475440293 0.767704427
32810114 0.500585079 0.75141716
32869479 0.525088071 0.734512329
32928844 0.549283802 0.716741502
32988209 0.572757959 0.698379576
33047574 0.595634043 0.679218769
33106939 0.617636203 0.659261167
33166304 0.63910222 0.638562023
33225669 0.66000092 0.617431998
33285034 0.680010616 0.595500469
33344399 0.699388265 0.572522759
33403764 0.718276679 0.549408555
33463129 0.735827744 0.525570333
33522494 0.752857744 0.501157104
33581859 0.768975079 0.476193606
33641224 0.784435868 0.450737446
33700589 0.798996388 0.424384325
33759954 0.812517106 0.398229062
33819319 0.825405001 0.371562838
33878684 0.837180733 0.344228059
33938049 0.848438262 0.316859453
33997414 0.858416795 0.2887474
34056779 0.867560267 0.260626077
34116144 0.875607609 0.231902062
34175509 0.882924437 0.203468501
34234874 0.889268696 0.174607023
34294239 0.894838571 0.145531535
34353604 0.899139583 0.116170875
34412969 0.902607083 0.087080799
34472334 0.905140697 0.057453099
34531699 0.906676173 0.027826016
34591064 0.906966984 -0.001430774
34650429 0.906710803 -0.030755357
34709794 0.905421793 -0.060596209
34769159 0.903099358 -0.089523464
34828524 0.89994359 -0.118704125
34887889 0.895846128 -0.147374361
34947254 0.89059627 -0.176513835
35006619 0.884477376 -0.205339044
35065984 0.877794921 -0.233770564
35125349 0.869579374 -0.26175335
35184714 0.860920846 -0.289619803
35244079 0.851150751 -0.317316532
35303444 0.840692698 -0.344170987
35362809 0.829730391 -0.371137917
35422174 0.817379713 -0.397473931
35481539 0.804613411 -0.423280805
