# Hz S RI R 50
100000 0.99940145 -0.008870523
159365 0.999771654 -0.01530887
218730 0.999817848 -0.020696142
278095 0.99964416 -0.026096772
337460 0.999692916 -0.031255945
396825 0.999524116 -0.036524441
456190 0.999519824 -0.041557352
515555 0.999341845 -0.046870324
574920 0.999188899 -0.051816429
634285 0.999283254 -0.056968569
693650 0.998931765 -0.062047682
753015 0.99852854 -0.067335538
812380 0.998416662 -0.072238624
871745 0.998051047 -0.07752411
931110 0.997882008 -0.0823289
990475 0.997375905 -0.087545014
1049840 0.996875166 -0.092428795
1109205 0.996404409 -0.097286164
1168570 0.996064245 -0.10243754
1227935 0.995538175 -0.107779212
1287300 0.99511373 -0.112736061
1346665 0.994613587 -0.117825672
1406030 0.993944823 -0.122899115
1465395 0.99342978 -0.1279646
1524760 0.992802262 -0.132642805
1584125 0.992205739 -0.13766998
1643490 0.99152553 -0.142971143
1702855 0.990994036 -0.147692382
1762220 0.989913523 -0.152836218
1821585 0.989496409 -0.15793021
1880950 0.988353013 -0.162502363
1940315 0.987959384 -0.167549386
1999680 0.987142503 -0.172664493
2059045 0.98614341 -0.177463918
2118410 0.985325992 -0.182389572
2177775 0.984490036 -0.187563747
2237140 0.983301341 -0.192568153
2296505 0.982538342 -0.197266697
2355870 0.981663644 -0.202229157
2415235 0.980418682 -0.207205206
2474600 0.979305505 -0.212079003
2533965 0.978302299 -0.217270106
2593330 0.977133691 -0.221849709
2652695 0.976424694 -0.227182999
2712060 0.9749372 -0.231875136
2771425 0.973989903 -0.236584171
2830790 0.97265321 -0.241487324
2890155 0.971451163 -0.246791899
2949520 0.969966232 -0.251396864
3008885 0.96934241 -0.256450831
3068250 0.967574715 -0.261197328
3127615 0.966502904 -0.266267627
3186980 0.964708209 -0.271027922
3246345 0.963416218 -0.275630503
3305710 0.962193548 -0.28068152
3365075 0.960971057 -0.285455197
3424440 0.959494948 -0.290100842
3483805 0.958034873 -0.295161128
3543170 0.956461489 -0.299767106
3602535 0.954764842 -0.304505676
3661900 0.953458905 -0.309486597
3721265 0.951838076 -0.314213007
3780630 0.949951291 -0.31923139
3839995 0.948690116 -0.32362464
3899360 0.94691956 -0.328799128
3958725 0.945088565 -0.333578824
4018090 0.943586945 -0.337881386
4077455 0.941721796 -0.342886239
4136820 0.93963015 -0.347662866
4196185 0.938340604 -0.352347254
4255550 0.936131477 -0.356633245
4314915 0.934476613 -0.361630141
4374280 0.932633936 -0.366220325
4433645 0.930620193 -0.370934575
4493010 0.929036319 -0.375547468
4552375 0.926813602 -0.379905581
4611740 0.924747347 -0.384851157
4671105 0.92316401 -0.3891882
4730470 0.920817017 -0.393708676
4789835 0.918910086 -0.398728638
4849200 0.916760802 -0.403012543
4908565 0.915040194 -0.40780428
4967930 0.913063943 -0.412151813
5027295 0.910553157 -0.416924864
5086660 0.908828735 -0.421052485
5146025 0.906209349 -0.42541334
5205390 0.904075324 -0.43035075
5264755 0.902008295 -0.434953987
5324120 0.899875104 -0.439176559
5383485 0.897557437 -0.443772375
5442850 0.895170271 -0.448160529
5502215 0.892631411 -0.452706962
5561580 0.890698194 -0.456974506
5620945 0.887841761 -0.461345136
5680310 0.885485231 -0.465823769
5739675 0.88292998 -0.469782441
5799040 0.880993485 -0.474578052
5858405 0.878031134 -0.478777378
5917770 0.876298964 -0.483169317
5977135 0.87364006 -0.486870646
6036500 0.871061801 -0.491229653
6095865 0.869400024 -0.495643228
6155230 0.867089092 -0.500111341
6214595 0.865276098 -0.504054486
6273960 0.863558709 -0.508434116
6333325 0.86290723 -0.512845277
6392690 0.862579762 -0.516849398
6452055 0.860584437 -0.522177636
6511420 0.857324659 -0.527460873
6570785 0.853640615 -0.532015919
6630150 0.849527776 -0.536503911
6689515 0.845224738 -0.54028362
6748880 0.841698944 -0.544640719
6808245 0.83813709 -0.548555731
6867610 0.835193872 -0.552738249
6926975 0.832038283 -0.556970596
6986340 0.82904464 -0.560772359
7045705 0.825948476 -0.564749538
7105070 0.823037505 -0.568859994
7164435 0.819927513 -0.572941303
7223800 0.816628873 -0.576961636
7283165 0.813378155 -0.580700099
7342530 0.810611724 -0.584758162
7401895 0.807142496 -0.589065015
7461260 0.804175913 -0.593280375
7520625 0.801048874 -0.5971601
7579990 0.798004567 -0.60078448
7639355 0.794736206 -0.604606509
7698720 0.791832864 -0.608749926
7758085 0.788161396 -0.612306714
7817450 0.785278081 -0.616243541
7876815 0.781846284 -0.620348334
7936180 0.778320252 -0.624229609
7995545 0.775232493 -0.627844691
8054910 0.771681904 -0.631176888
8114275 0.768606722 -0.635120868
8173640 0.765602409 -0.639259934
8233005 0.762310445 -0.643055319
8292370 0.758903026 -0.647004604
8351735 0.755987107 -0.651361763
8411100 0.752580642 -0.655054748
8470465 0.749412 -0.658814132
8529830 0.745894253 -0.662367999
8589195 0.742155909 -0.666423559
8648560 0.738932013 -0.670480728
8707925 0.735694825 -0.674466013
8767290 0.732557952 -0.6780532
8826655 0.728784501 -0.681597828
8886020 0.725357353 -0.685408651
8945385 0.721902132 -0.689171135
9004750 0.71814543 -0.692692875
9064115 0.71506524 -0.696200549
9123480 0.711291253 -0.699965894
9182845 0.708183586 -0.703674256
9242210 0.704629063 -0.707376539
9301575 0.700705587 -0.710787415
9360940 0.697232544 -0.714512407
9420305 0.693915903 -0.718093812
9479670 0.68988645 -0.721567571
9539035 0.686401665 -0.725263118
9598400 0.682668328 -0.728940606
9657765 0.678496897 -0.732319712
9717130 0.675064384 -0.73568356
9776495 0.671317875 -0.739565789
9835860 0.667895853 -0.742696464
9895225 0.663654983 -0.745882153
9954590 0.659933865 -0.749665498
10013955 0.656319737 -0.752634882
10073320 0.652410209 -0.756234645
10132685 0.648590087 -0.759805917
10192050 0.644782662 -0.762691438
10251415 0.640739858 -0.766285181
10310780 0.637013137 -0.769499957
10370145 0.633309602 -0.772653877
10429510 0.628699839 -0.775261342
10488875 0.624974727 -0.778726398
10548240 0.620633065 -0.781865835
10607605 0.617220401 -0.785139799
10666970 0.612856507 -0.788350939
10726335 0.609190106 -0.791170716
10785700 0.604987144 -0.794646024
10845065 0.600769579 -0.7977162
10904430 0.59693259 -0.800802409
10963795 0.592955946 -0.803630471
11023160 0.588745534 -0.806652009
11082525 0.584397375 -0.809289813
11141890 0.580394983 -0.812902808
11201255 0.576259195 -0.81563431
11260620 0.57202816 -0.818272829
11319985 0.567389011 -0.820783734
11379350 0.563458502 -0.824275493
11438715 0.559165537 -0.826659917
11498080 0.554568946 -0.829798817
11557445 0.55079174 -0.832690179
11616810 0.54628241 -0.835277736
11676175 0.542183756 -0.838182866
11735540 0.538069665 -0.840741455
11794905 0.533795475 -0.843456685
11854270 0.529087841 -0.846233129
11913635 0.524968564 -0.848782479
11973000 0.520512819 -0.851197779
12032365 0.516128242 -0.854167103
12091730 0.511799156 -0.856529593
12151095 0.507288277 -0.859212398
12210460 0.502777516 -0.861802458
12269825 0.498636186 -0.864459097
12329190 0.494328051 -0.866762459
12388555 0.489369243 -0.869452595
12447920 0.484767913 -0.871788084
12507285 0.480622619 -0.874191939
12566650 0.476250469 -0.876633286
12626015 0.471514463 -0.878632724
12685380 0.466831624 -0.881277263
12744745 0.462448328 -0.883498311
12804110 0.457894861 -0.88564819
12863475 0.453406393 -0.887705028
12922840 0.448684632 -0.890245795
12982205 0.443715661 -0.892353713
13041570 0.439287304 -0.8947317
13100935 0.434751898 -0.89656955
13160300 0.4299542 -0.899040758
13219665 0.425405234 -0.901035666
13279030 0.420985698 -0.903019011
13338395 0.416277229 -0.905442237
13397760 0.411543041 -0.907243847
13457125 0.40704602 -0.909392595
13516490 0.402222543 -0.911171853
13575855 0.397277146 -0.913077652
13635220 0.392842918 -0.915211975
13694585 0.388153016 -0.917015314
13753950 0.38313651 -0.919075548
13813315 0.3784177 -0.920488178
13872680 0.373628437 -0.922536432
13932045 0.368909329 -0.924489378
13991410 0.364293783 -0.92592132
14050775 0.359166592 -0.927455663
14110140 0.354641437 -0.92936021
14169505 0.349537551 -0.93126893
14228870 0.34497562 -0.932600438
14288235 0.340122014 -0.934566617
14347600 0.335261404 -0.936070024
14406965 0.330374777 -0.937838733
14466330 0.325464338 -0.939289391
14525695 0.320763438 -0.940783262
14585060 0.315811276 -0.942223787
14644425 0.310683548 -0.94385153
14703790 0.305991709 -0.945322394
14763155 0.301242381 -0.946794688
14822520 0.296255975 -0.948045611
14881885 0.291219025 -0.94927746
14941250 0.286181062 -0.950571954
15000615 0.281305909 -0.952044546
15059980 0.276055961 -0.953462421
15119345 0.271393448 -0.954882621
15178710 0.266533225 -0.95584315
15238075 0.261491119 -0.957118213
15297440 0.256451547 -0.958573997
15356805 0.251430153 -0.959326148
15416170 0.24645017 -0.960610449
15475535 0.241478413 -0.961639642
15534900 0.236394181 -0.96283251
15594265 0.231608778 -0.963678061
15653630 0.226277574 -0.964706361
15712995 0.221506208 -0.965553343
15772360 0.216501697 -0.966712057
15831725 0.211525887 -0.967592716
15891090 0.206322237 -0.968397438
15950455 0.20135644 -0.969064116
16009820 0.196049109 -0.970246136
16069185 0.191163167 -0.971329212
16128550 0.186438098 -0.971939742
16187915 0.181447103 -0.973042309
16247280 0.176548004 -0.973894536
16306645 0.171281099 -0.974615752
16366010 0.166119426 -0.975481808
16425375 0.161028027 -0.976472139
16484740 0.156086876 -0.977205991
16544105 0.151057034 -0.978381752
16603470 0.146002039 -0.978978097
16662835 0.14088203 -0.979932487
16722200 0.135899215 -0.980685591
16781565 0.130590349 -0.981203436
16840930 0.1255095 -0.981929779
16900295 0.120671421 -0.982870042
16959660 0.115230537 -0.983320951
17019025 0.110192425 -0.983973443
17078390 0.105263352 -0.984542667
17137755 0.100323669 -0.985005974
17197120 0.095153599 -0.985448896
17256485 0.089822858 -0.986025452
17315850 0.084767401 -0.986312747
17375215 0.079551711 -0.986953854
17434580 0.074862852 -0.987428545
17493945 0.069446347 -0.987760007
17553310 0.064498759 -0.987973928
17612675 0.058976829 -0.988369882
17672040 0.054235778 -0.988702356
17731405 0.048865113 -0.988976776
17790770 0.043821871 -0.989358842
17850135 0.038580313 -0.989501178
17909500 0.033677887 -0.989566683
17968865 0.028317853 -0.989684879
18028230 0.02294615 -0.989885032
18087596 0.018379239 -0.989940404
18146961 0.01318999 -0.989830791
18206326 0.007764796 -0.990067899
18265691 0.002731626 -0.989993631
18325056 -0.002630137 -0.989822089
18384421 -0.007719645 -0.989870011
18443786 -0.012744775 -0.989959895
18503151 -0.018104949 -0.989750087
18562516 -0.023112498 -0.98949784
18621881 -0.028429919 -0.989610433
18681246 -0.033500071 -0.989162266
18740611 -0.03862255 -0.988721668
18799976 -0.043675549 -0.988616347
18859341 -0.048797219 -0.988467335
18918706 -0.053994409 -0.98843342
18978071 -0.058894269 -0.987827181
19037436 -0.064098216 -0.987417101
19096801 -0.069360956 -0.986988663
19156166 -0.074501715 -0.98665446
19215531 -0.079646944 -0.986085414
19274896 -0.08476074 -0.985463082
19334261 -0.089762292 -0.985256075
19393626 -0.094948127 -0.984388232
19452991 -0.100200906 -0.984171271
19512356 -0.1052965 -0.983282506
19571721 -0.110414013 -0.982694029
19631086 -0.115151032 -0.982218503
19690451 -0.120723851 -0.981523096
19749816 -0.125644817 -0.980951726
19809181 -0.13090144 -0.980194628
19868546 -0.135860413 -0.979201793
19927911 -0.141138195 -0.978347837
19987276 -0.146090328 -0.97769308
20046641 -0.151302084 -0.976755082
20106006 -0.156275942 -0.9762156
20165371 -0.161261886 -0.975156426
20224736 -0.166549563 -0.974133253
20284101 -0.171253576 -0.973351836
20343466 -0.176518678 -0.971968233
20402831 -0.181447654 -0.971229076
20462196 -0.186448708 -0.970029413
20521561 -0.191667631 -0.968928277
20580926 -0.196467369 -0.967744529
20640291 -0.201610952 -0.96672374
20699656 -0.206690296 -0.965572953
20759021 -0.211751222 -0.964182794
20818386 -0.216697394 -0.963122308
20877751 -0.221651181 -0.961822867
20937116 -0.2268904 -0.960653722
20996481 -0.231356397 -0.959418654
21055846 -0.236622303 -0.958067536
21115211 -0.241618439 -0.956469655
21174576 -0.246669039 -0.955198407
21233941 -0.251430362 -0.953987061
21293306 -0.256503939 -0.952465534
21352671 -0.261393994 -0.950758218
21412036 -0.266400068 -0.949435591
21471401 -0.271293163 -0.94781655
21530766 -0.276226311 -0.946272909
21590131 -0.281055599 -0.944703102
21649496 -0.28606072 -0.943235576
21708861 -0.290943533 -0.941425025
21768226 -0.295735687 -0.939831674
21827591 -0.300534576 -0.938242912
21886956 -0.305593103 -0.936305165
21946321 -0.310387104 -0.934864342
22005686 -0.315522044 -0.932827889
22065051 -0.319833993 -0.931006312
22124416 -0.324930608 -0.929365277
22183781 -0.329699695 -0.927295684
22243146 -0.334523171 -0.925536036
22302511 -0.339210599 -0.923517882
22361876 -0.343977093 -0.921722531
22421241 -0.348974287 -0.919760763
22480606 -0.353525608 -0.917758882
22539971 -0.358264327 -0.915748655
22599336 -0.363209336 -0.913833498
22658701 -0.367830485 -0.911860764
22718066 -0.372545033 -0.909830212
22777431 -0.377240777 -0.907582759
22836796 -0.381975471 -0.905270755
22896161 -0.386787086 -0.903223812
22955526 -0.39134103 -0.900892555
23014891 -0.395980238 -0.898687958
23074256 -0.400847077 -0.896485626
23133621 -0.405139505 -0.894143402
23192986 -0.409825742 -0.891987025
23252351 -0.414410531 -0.889396309
23311716 -0.418957024 -0.887084901
23371081 -0.423694461 -0.884950816
23430446 -0.42812851 -0.882158458
23489811 -0.432781249 -0.87998712
23549176 -0.437347829 -0.877623617
23608541 -0.441854268 -0.875011742
23667906 -0.446530818 -0.872730553
23727271 -0.450865894 -0.870117723
23786636 -0.455326557 -0.867468297
23846001 -0.459700435 -0.864887058
23905366 -0.464276611 -0.862343847
23964731 -0.46882525 -0.859535157
24024096 -0.473081141 -0.857010602
24083460 -0.477676272 -0.85451442
24142825 -0.482167929 -0.851718068
24202190 -0.486676305 -0.849041104
24261555 -0.491019308 -0.846700847
24320920 -0.495748698 -0.843892216
24380285 -0.499987542 -0.841419458
24439650 -0.504520773 -0.838668942
24499015 -0.508880198 -0.836040437
24558380 -0.513301372 -0.833343088
24617745 -0.517639994 -0.83077985
24677110 -0.522221624 -0.827823102
24736475 -0.526382863 -0.825139403
24795840 -0.53073436 -0.822261333
24855205 -0.535105288 -0.819514155
24914570 -0.539627313 -0.816559314
24973935 -0.543731927 -0.813906073
25033300 -0.548238158 -0.810782849
25092665 -0.552365541 -0.808027982
25152030 -0.556813895 -0.805013358
25211395 -0.560816705 -0.802141606
25270760 -0.565187752 -0.799157738
25330125 -0.569513618 -0.79617989
25389490 -0.573339283 -0.793224692
25448855 -0.577730178 -0.790006935
25508220 -0.581908583 -0.786963939
25567585 -0.585978567 -0.783999145
25626950 -0.590128183 -0.780709803
25686315 -0.594106614 -0.777550339
25745680 -0.598501861 -0.774467766
25805045 -0.602170825 -0.771349668
25864410 -0.606613814 -0.767760992
25923775 -0.610512673 -0.76486957
25983140 -0.614672243 -0.761581718
26042505 -0.618381261 -0.75812447
26101870 -0.622550785 -0.754958093
26161235 -0.626471221 -0.751635968
26220600 -0.630324125 -0.748138725
26279965 -0.6343171 -0.744908094
26339330 -0.638366639 -0.741557359
26398695 -0.642066836 -0.737956583
26458060 -0.646146595 -0.73462218
26517425 -0.65008378 -0.731272697
26576790 -0.65383619 -0.72749257
26636155 -0.657394826 -0.724011301
26695520 -0.661205649 -0.720370769
26754885 -0.66512829 -0.717116236
26814250 -0.668630838 -0.713519632
26873615 -0.672326564 -0.709902226
26932980 -0.676269948 -0.70622766
26992345 -0.679966092 -0.702715218
27051710 -0.683561563 -0.698695063
27111075 -0.68723464 -0.695265173
27170440 -0.690892398 -0.691581845
27229805 -0.694778978 -0.687862396
27289170 -0.698138058 -0.684179842
27348535 -0.701682925 -0.680383443
27407900 -0.70519638 -0.676571249
27467265 -0.70875585 -0.672760426
27526630 -0.712306201 -0.668832063
27585995 -0.71560359 -0.665060937
27645360 -0.719158828 -0.661457836
27704725 -0.722604811 -0.657330214
27764090 -0.726140558 -0.653336584
27823455 -0.729331195 -0.649451434
27882820 -0.732839226 -0.645655274
27942185 -0.736289799 -0.641563594
28001550 -0.739514708 -0.63780862
28060915 -0.74296844 -0.633725404
28120280 -0.746025443 -0.629640519
28179645 -0.749377846 -0.62555623
28239010 -0.752833724 -0.621627092
28298375 -0.755730986 -0.617486894
28357740 -0.759138405 -0.613324344
28417105 -0.76225835 -0.609322905
28476470 -0.765432775 -0.60504049
28535835 -0.768325269 -0.60108447
28595200 -0.771576225 -0.597209095
28654565 -0.77477467 -0.592600405
28713930 -0.777619898 -0.588517785
28773295 -0.780949115 -0.584252536
28832660 -0.783859193 -0.580143749
28892025 -0.786644756 -0.575835883
28951390 -0.789878845 -0.571543097
29010755 -0.792767882 -0.567288339
29070120 -0.795569956 -0.563017666
29129485 -0.798710644 -0.558673381
29188850 -0.800972282 -0.554297089
29248215 -0.804440438 -0.550081849
29307580 -0.806895017 -0.545616567
29366945 -0.809740841 -0.541249573
29426310 -0.812651395 -0.53678745
29485675 -0.815439283 -0.532378613
29545040 -0.818070113 -0.527942895
29604405 -0.820660412 -0.523786604
29663770 -0.823259353 -0.519163429
29723135 -0.825880348 -0.514876902
29782500 -0.828614175 -0.510261178
29841865 -0.831237196 -0.505664408
29901230 -0.833828866 -0.501111209
29960595 -0.836186945 -0.49664098
30019960 -0.838972926 -0.491938352
30079324 -0.84148544 -0.487877696
30138689 -0.843654096 -0.48307085
30198054 -0.846264958 -0.478442609
30257419 -0.848497748 -0.473934203
30316784 -0.850921809 -0.469031423
30376149 -0.853397428 -0.464758366
30435514 -0.855851411 -0.460230499
30494879 -0.858198642 -0.455501198
30554244 -0.860200166 -0.450754582
30613609 -0.862611651 -0.446208268
30672974 -0.86464107 -0.441511183
30732339 -0.866926252 -0.436488062
30791704 -0.869382202 -0.432086855
30851069 -0.871309638 -0.42726472
30910434 -0.873367726 -0.422714561
30969799 -0.875224351 -0.417932271
31029164 -0.877490937 -0.413274645
31088529 -0.879469573 -0.40852493
31147894 -0.88186711 -0.403554409
31207259 -0.883615791 -0.398714542
31266624 -0.885377824 -0.393946796
31325989 -0.8875373 -0.389404833
31385354 -0.889301478 -0.384338647
31444719 -0.89125359 -0.379640311
31504084 -0.892973303 -0.37478581
31563449 -0.894853413 -0.369972944
31622814 -0.896608352 -0.364921063
31682179 -0.898056805 -0.360310554
31741544 -0.899834692 -0.355295032
31800909 -0.901721775 -0.3506231
31860274 -0.903576493 -0.345677942
31919639 -0.905165314 -0.340785354
31979004 -0.906377255 -0.335797995
32038369 -0.908370554 -0.331116586
32097734 -0.909879148 -0.326245874
32157099 -0.911912858 -0.321140617
32216464 -0.913223564 -0.316081792
32275829 -0.914922475 -0.31130743
32335194 -0.916555464 -0.306529164
32394559 -0.918441712 -0.301643759
32453924 -0.920200526 -0.29634878
32513289 -0.921471536 -0.29201442
32572654 -0.923114717 -0.2867769
32632019 -0.924703299 -0.281793624
32691384 -0.926307499 -0.276890516
32750749 -0.92778027 -0.272061467
32810114 -0.928771793 -0.266989767
32869479 -0.930603384 -0.262209594
32928844 -0.931589066 -0.257140845
32988209 -0.932926177 -0.252217173
33047574 -0.934942901 -0.246890187
33106939 -0.935920357 -0.242237001
33166304 -0.936988592 -0.237201496
33225669 -0.938541531 -0.232023298
33285034 -0.939576566 -0.227163776
33344399 -0.940749526 -0.222114861
33403764 -0.942332148 -0.216999813
33463129 -0.943085789 -0.211995497
33522494 -0.944465696 -0.207094252
33581859 -0.945503056 -0.202021896
33641224 -0.946615815 -0.196877911
33700589 -0.946915328 -0.191909939
33759954 -0.948453187 -0.186897188
33819319 -0.94943273 -0.181878805
33878684 -0.950684189 -0.176650136
33938049 -0.951434075 -0.171359017
33997414 -0.952292501 -0.166242703
34056779 -0.953063666 -0.161097794
34116144 -0.953800916 -0.156288266
34175509 -0.95482099 -0.151246368
34234874 -0.955401539 -0.145909294
34294239 -0.95643109 -0.140653699
34353604 -0.95689547 -0.135690867
34412969 -0.957528233 -0.130424037
34472334 -0.958401679 -0.125460967
34531699 -0.958571791 -0.120060458
34591064 -0.959725141 -0.115235485
34650429 -0.959934592 -0.110098592
34709794 -0.960300445 -0.105043426
34769159 -0.960812449 -0.099808372
34828524 -0.961403548 -0.094780012
34887889 -0.962535798 -0.089211821
34947254 -0.96244651 -0.084221392
35006619 -0.962548375 -0.079366452
