# Hz S RI R 50
100000 0.99912095 -0.008503964
892764 0.99767816 -0.078819409
1685528 0.991229116 -0.145990744
2478292 0.97912234 -0.212432891
3271056 0.962802648 -0.277580618
4063820 0.942219674 -0.341393709
4856584 0.91684103 -0.40344122
5649348 0.886582016 -0.463232129
6442112 0.860977709 -0.521025538
7234876 0.815533161 -0.57733494
8027640 0.773199021 -0.629883348
8820404 0.729569435 -0.681189596
9613168 0.681390345 -0.729844629
10405932 0.630771517 -0.773945152
11198696 0.576037943 -0.815504848
11991460 0.519192993 -0.85237503
12784224 0.459429889 -0.884928703
13576988 0.397023558 -0.912873268
14369752 0.333510488 -0.936790704
15162516 0.267936468 -0.955173015
15955280 0.201001778 -0.968685865
16748044 0.13324818 -0.980534434
17540808 0.065090328 -0.987478554
18333572 -0.003833623 -0.989742338
19126336 -0.072035148 -0.986217319
19919100 -0.140038684 -0.978505373
20711864 -0.207740023 -0.964868426
21504628 -0.273558944 -0.946542441
22297392 -0.338932901 -0.923042416
23090156 -0.401787847 -0.895493447
23882920 -0.462363749 -0.863082051
24675684 -0.521648228 -0.827444076
25468448 -0.578971385 -0.788504481
26261212 -0.632974624 -0.745415866
27053976 -0.683545231 -0.698382496
27846740 -0.730512619 -0.647585034
28639504 -0.773627936 -0.593392908
29432268 -0.812509298 -0.536030888
30225032 -0.847039103 -0.475993424
31017796 -0.876357078 -0.413702279
31810560 -0.90162909 -0.349122911
32603324 -0.923463821 -0.28399375
33396088 -0.941242933 -0.217417463
34188852 -0.954556107 -0.149499207
34981616 -0.962149739 -0.081374689
35774380 -0.964638411 -0.012654722
36567144 -0.961786925 0.056441232
37359908 -0.954688012 0.124393753
38152672 -0.941574871 0.192360132
38945436 -0.923677206 0.25774905
39738200 -0.901342809 0.322823256
40530964 -0.874935448 0.385240137
41323728 -0.846370935 0.447103977
42116492 -0.81293118 0.505925774
42909256 -0.774596571 0.562879204
43702020 -0.732500374 0.615899264
44494784 -0.686603665 0.665938019
45287548 -0.637937486 0.712912619
46080312 -0.585149288 0.754772424
46873076 -0.529284656 0.793443024
47665840 -0.471700072 0.827007472
48458604 -0.412309676 0.857797086
49251368 -0.350776314 0.88513261
50044132 -0.287950187 0.908673882
50836896 -0.223735079 0.926647722
51629660 -0.15863648 0.940019369
52422424 -0.0929645 0.948602676
53215188 -0.026791112 0.952303826
54007952 0.039221275 0.951411843
54800716 0.10518454 0.94535923
55593480 0.169640287 0.934868872
56386244 0.233348056 0.920105576
57179008 0.296556264 0.903146445
57971772 0.358049958 0.881790757
58764536 0.418184071 0.855712652
59557300 0.475364297 0.825731039
60350064 0.530504047 0.79127717
61142828 0.583048284 0.753345668
61935592 0.632632076 0.712150752
62728356 0.679027974 0.666148602
63521120 0.721310198 0.618840217
64313884 0.760699212 0.568523466
65106648 0.797939479 0.51543349
65899412 0.832042098 0.461736112
66692176 0.861799836 0.40500018
67484940 0.887475907 0.346717178
68277704 0.908756613 0.286650657
69070468 0.92537409 0.224786743
69863232 0.93767333 0.162442848
70655996 0.946937859 0.100520126
71448760 0.9482975 0.035556197
72241524 0.948983192 -0.02817624
73034288 0.94364649 -0.090851783
73827052 0.938879013 -0.153370752
74619816 0.925864636 -0.216849192
75412580 0.910128593 -0.278266638
76205344 0.889408946 -0.338443666
76998108 0.863651275 -0.395536452
77790872 0.835962891 -0.452842622
78583636 0.803648173 -0.507022738
79376400 0.766956329 -0.558447659
80169264 0.72687143 -0.608569145
80962028 0.685498654 -0.656077504
81754792 0.640488386 -0.700576722
82547556 0.590516507 -0.742468893
83340320 0.539619863 -0.78040558
84133084 0.485390007 -0.81495279
84925848 0.42877236 -0.845530629
85718612 0.369728565 -0.871556401
86511376 0.308906525 -0.893443286
87304140 0.246422931 -0.91110903
88096904 0.183467656 -0.924139797
88889668 0.120028711 -0.935296416
89682432 0.055439181 -0.941364526
90475196 -0.008723544 -0.944174289
91267960 -0.074279583 -0.941233098
92060724 -0.138373494 -0.932608783
92853488 -0.201778709 -0.921250462
93646252 -0.26539129 -0.902873218
94439016 -0.327958434 -0.880895912
95231780 -0.387093365 -0.855448961
96024544 -0.443509131 -0.825890779
96817308 -0.500455141 -0.79237318
97610072 -0.556676626 -0.758325755
98402836 -0.609483957 -0.715933501
99195600 -0.65595287 -0.671338498
99988364 -0.701835155 -0.624064564
100781128 -0.742255449 -0.571569859
101573892 -0.779919743 -0.517446279
102366656 -0.814212322 -0.460906654
103159420 -0.843349695 -0.401302188
103952184 -0.868445456 -0.340053975
164744942 -0.88966757 -0.2773723
105537712 -0.908129632 -0.213181465
106330476 -0.921626687 -0.148394361
107123240 -0.929894804 -0.082156687
107916004 -0.932794034 -0.015358878
108708768 -0.931366622 0.051121991
109501532 -0.925183594 0.116854995
110294296 -0.912837803 0.182385623
111087060 -0.896332502 0.247079998
111879824 -0.875143826 0.310214132
112672588 -0.851025342 0.371620446
113465352 -0.822777569 0.431937545
114258116 -0.790312767 0.48973301
115050880 -0.752921402 0.545282721
115843644 -0.712327122 0.597315371
116636408 -0.667966008 0.64666295
117429172 -0.619635403 0.692050755
118221936 -0.568085312 0.733916103
119014700 -0.514295339 0.771393179
119807464 -0.457089424 0.805049419
120600228 -0.399311721 0.835729002
121392992 -0.33888334 0.862089455
122185756 -0.277402639 0.885177195
122978520 -0.214544862 0.902574539
123771284 -0.150796994 0.915211975
124564048 -0.086283445 0.923106253
125356812 -0.020877223 0.927820026
126149576 0.04402427 0.926197707
126942340 0.108626119 0.919726848
127735104 0.171789407 0.909113109
128527868 0.233831092 0.894009232
129320632 0.296926081 0.876927375
130113396 0.356507837 0.855003535
130906160 0.415042042 0.828490853
131698924 0.47149986 0.799491107
132491688 0.524724364 0.764187693
133284452 0.575830578 0.72636497
134077216 0.624389827 0.685428977
134869980 0.668236732 0.639950156
135662744 0.709353506 0.592369198
136455508 0.747945785 0.543151915
137248272 0.784066915 0.491279065
138041036 0.816199123 0.437820971
138833800 0.843971312 0.381399869
139626564 0.867739915 0.323753297
140419328 0.887839317 0.264232248
141212092 0.903360724 0.204362094
142004856 0.914528846 0.142796054
142797620 0.921313583 0.081242062
143590384 0.923520565 0.019230227
144383148 0.922323107 -0.042694602
145175912 0.918232619 -0.104499973
145968676 0.910041213 -0.165818363
146761440 0.897564351 -0.226388365
147554204 0.880794405 -0.285680145
148346968 0.859737753 -0.343966901
149139732 0.8348248 -0.399978399
149932496 0.805407226 -0.454048842
150725260 0.772467732 -0.506337642
151518024 0.736407935 -0.556343197
152310788 0.697821795 -0.603549897
153103552 0.656728506 -0.649697422
153896316 0.611963868 -0.692774713
154689080 0.564883887 -0.731370806
155481844 0.514969766 -0.768292129
156274608 0.462611913 -0.801265478
157067372 0.408065766 -0.829042017
157860136 0.351457983 -0.853829741
158652900 0.293071359 -0.874850571
159445664 0.233417779 -0.891584575
160238528 0.172864273 -0.904136717
161031292 0.111631326 -0.914217054
161824056 0.050514534 -0.920637309
162616820 -0.012307145 -0.921739876
163409584 -0.074320003 -0.919357895
164202348 -0.13637197 -0.911358296
164995112 -0.19766356 -0.900185048
165787876 -0.258206903 -0.883347988
166580640 -0.317158699 -0.862954974
167373404 -0.375030845 -0.837815821
168166168 -0.430780589 -0.808719515
168958932 -0.486209541 -0.778490662
169751696 -0.538163959 -0.743471562
170544460 -0.588452935 -0.704632222
171337224 -0.6358428 -0.662311494
172129988 -0.679419457 -0.616688728
172922752 -0.720064759 -0.567689836
173715516 -0.756918787 -0.515736103
174508280 -0.790275812 -0.461354315
175301044 -0.819235622 -0.404355376
176093808 -0.843777835 -0.345710694
176886572 -0.867106437 -0.285985887
177679336 -0.884892284 -0.223872035
178472100 -0.898402392 -0.161339923
179264864 -0.908247053 -0.096885472
180057628 -0.912111699 -0.032625354
180850392 -0.912035703 0.031389452
181643156 -0.906715393 0.095605745
182435920 -0.896260738 0.159053757
183228684 -0.880256652 0.222127199
184021448 -0.861517488 0.283480107
184814212 -0.839771747 0.344450771
185606976 -0.813716053 0.402650177
186399740 -0.783280491 0.460155487
187192504 -0.749124288 0.514148771
187985268 -0.709953367 0.565616071
188778032 -0.668905675 0.613986611
189570796 -0.623076796 0.659440159
190363560 -0.574141681 0.701430618
191156324 -0.522261977 0.738865077
191949088 -0.468399405 0.772318482
192741852 -0.412403523 0.804339706
193534616 -0.354063749 0.831818521
194327380 -0.294409185 0.855179667
195120144 -0.233947202 0.873539149
195912908 -0.171551406 0.887682437
196705672 -0.108850419 0.897698283
197498436 -0.045273646 0.903308093
198291200 0.018298331 0.903125107
199083964 0.081869766 0.898843467
199876728 0.144441604 0.889380395
200669492 0.206389263 0.877704322
201462256 0.267431437 0.862164199
202255020 0.326871871 0.842045247
203047784 0.384491175 0.817503213
203840548 0.440246522 0.789098203
204633312 0.493584096 0.756852388
205426076 0.544430911 0.72092235
206218840 0.592422664 0.681426703
207011604 0.637368321 0.638205468
207804368 0.678684115 0.592584967
208597132 0.717774868 0.545025885
209389896 0.754201173 0.496067464
210182660 0.787327468 0.443165123
210975424 0.816011726 0.390006452
211768188 0.840873479 0.334264993
212560952 0.861915647 0.27649483
213353716 0.877971708 0.217404186
214146480 0.890071809 0.158447638
214939244 0.898030817 0.096931628
215732008 0.901822149 0.036904867
216524772 0.901995837 -0.023270968
217317536 0.900562763 -0.083689779
218110300 0.893413484 -0.143634632
218903064 0.882719039 -0.202840059
219695828 0.866569161 -0.26064527
220488592 0.847999572 -0.317993819
221281356 0.824714362 -0.37327513
222074120 0.797690212 -0.426502645
222866884 0.76666665 -0.478692084
223659648 0.732149362 -0.527544856
224452412 0.69515866 -0.575050115
225245176 0.656526803 -0.620411932
226037940 0.614330708 -0.663099646
226830704 0.569424748 -0.703165829
227623468 0.521202921 -0.739501476
228416232 0.471145868 -0.772472977
229208996 0.418317168 -0.801810681
230001760 0.363791406 -0.827644169
230794524 0.307477563 -0.849210679
231587288 0.250038653 -0.866436123
232380052 0.191106811 -0.880991697
233172816 0.131956174 -0.892594635
233965580 0.071120902 -0.900292217
234758344 0.010919034 -0.903224766
235551108 -0.049691107 -0.901763379
236343872 -0.110664688 -0.896412253
237136636 -0.170999646 -0.88621217
237929400 -0.229658573 -0.871900916
238722164 -0.287909299 -0.853294849
239514928 -0.345142722 -0.830619215
240307792 -0.400315552 -0.804084479
241100556 -0.454446434 -0.775512933
241893320 -0.506587266 -0.743156194
242686084 -0.556545019 -0.707045674
243478848 -0.603692054 -0.667657434
244271612 -0.646784007 -0.623159885
245064376 -0.688313186 -0.57728368
245857140 -0.725758373 -0.52768886
246649904 -0.759305775 -0.475477069
247442668 -0.789264142 -0.421674966
248235432 -0.815537393 -0.365022778
249028196 -0.840046107 -0.306537717
249820960 -0.859518945 -0.247677937
250613724 -0.875095248 -0.186796754
251406488 -0.885452449 -0.125061929
252199252 -0.891339838 -0.062554314
252992016 -0.893155097 0.000332242
253784780 -0.889792382 0.063537895
254577544 -0.881690502 0.125583648
255370308 -0.869297921 0.187271356
256163072 -0.852321743 0.248282358
256955836 -0.833640635 0.308603763
257748600 -0.809712886 0.366461604
258541364 -0.781885921 0.423413604
259334128 -0.74978125 0.477519005
260126892 -0.713609099 0.529818534
260919656 -0.674242377 0.578606367
261712420 -0.630873918 0.624599814
262505184 -0.584237575 0.66608566
263297948 -0.534662425 0.705569028
264090712 -0.482547193 0.740672528
264883476 -0.434380769 0.774363219
265676240 -0.385547846 0.804317772
266469004 -0.333698689 0.831196486
267261768 -0.279609948 0.854123115
268054532 -0.225209802 0.87325561
268847296 -0.168694496 0.888404786
269640060 -0.112245403 0.898704349
270432824 0.000697639 0.874993681
271225588 0.05811613 0.879019796
272018352 0.113964743 0.872045576
272811116 0.17586109 0.863375008
273603880 0.234030738 0.849737226
274396644 0.294971257 0.833175122
275189408 0.353323251 0.812456369
275982172 0.406453311 0.785690724
276774936 0.459875434 0.757841467
277567700 0.512127935 0.722104012
278360464 0.559895038 0.684189081
279153228 0.604714989 0.647280097
279945992 0.647579014 0.602743327
280738756 0.687314331 0.558577716
281531520 0.725781679 0.511554598
282324284 0.757485508 0.460375279
283117048 0.789110958 0.410472303
283909812 0.81565243 0.356035083
284702576 0.837583482 0.301027029
285495340 0.855360329 0.243252202
286288104 0.869027972 0.18536511
287080868 0.878704845 0.126512035
287873632 0.88440752 0.06827192
288666396 0.88763529 0.008740146
289459160 0.886619925 -0.049693685
290251924 0.882477879 -0.109522916
291044688 0.872398734 -0.167707741
291837452 0.860167622 -0.225992202
292630216 0.842433989 -0.282744348
293422980 0.822757303 -0.336699515
294215744 0.797870039 -0.3897565
295008508 0.768916606 -0.441738754
295801272 0.737711787 -0.49005419
296594036 0.704086959 -0.539713025
297386800 0.663523733 -0.587367355
298179564 0.623823165 -0.627919852
298972328 0.582516312 -0.669430375
299765092 0.536176741 -0.708474695
300557856 0.484579771 -0.739406466
301350620 0.435055345 -0.77366954
302143384 0.384536176 -0.799637734
302936148 0.32832387 -0.822051525
303728912 0.271134316 -0.840059638
304521676 0.214019984 -0.857275962
305314440 0.156159549 -0.870411634
306107204 0.096393242 -0.879769265
306899968 0.036785174 -0.885595858
307692732 -0.022967109 -0.883565425
308485496 -0.081574335 -0.880193889
309278260 -0.14326927 -0.872644543
310071024 -0.201699927 -0.859451055
310863788 -0.258941262 -0.843195259
311656552 -0.316118896 -0.821502864
312449316 -0.372356712 -0.795896112
313242080 -0.428637146 -0.770561277
314034844 -0.480996876 -0.737579464
314827608 -0.530804574 -0.701888024
315620372 -0.578837215 -0.663036227
316413136 -0.623925983 -0.620735108
317205900 -0.664743721 -0.574923038
317998664 -0.702269852 -0.525552034
318791428 -0.73659861 -0.475019991
319584192 -0.767353832 -0.420795589
320377056 -0.794158101 -0.362903237
321169821 -0.820781588 -0.306906163
321962586 -0.840373575 -0.249331772
322755351 -0.857182979 -0.18805018
323548116 -0.869466066 -0.127636387
324340881 -0.874799549 -0.06496489
325133646 -0.876250207 -0.001603871
325926411 -0.875392675 0.060783721
326719176 -0.868157744 0.124312415
327511941 -0.855706989 0.184812113
328304706 -0.839560687 0.248005509
329097471 -0.819215655 0.30812028
329890236 -0.798673331 0.367177277
330683001 -0.767451941 0.421652138
331475766 -0.734805464 0.477308571
332268531 -0.698165833 0.530843079
333061296 -0.656543254 0.575027406
333854061 -0.610160052 0.623134553
334646826 -0.564326107 0.667272984
335439591 -0.513412773 0.703236281
336232356 -0.462253779 0.740484058
337025121 -0.406875312 0.770570814
337817886 -0.351363241 0.796733319
338610651 -0.291485607 0.820436537
339403416 -0.232494518 0.841820776
340196181 -0.171155169 0.854288518
340988946 -0.110798202 0.863811612
341781711 -0.047796722 0.86868751
342574476 0.013799114 0.86787784
343367241 0.077319681 0.863845765
344160006 0.137560993 0.855326473
344952771 0.198368594 0.844419181
345745536 0.257490634 0.829195439
346538301 0.315795958 0.808826923
347331066 0.371726453 0.786015987
348123831 0.425562471 0.758363783
348916596 0.476816743 0.727535068
349709361 0.526376485 0.691320657
350502126 0.573017418 0.653624176
351294891 0.616270363 0.611424326
352087656 0.655025601 0.5683254
352880421 0.693997979 0.523079395
353673186 0.729802072 0.474829435
354465951 0.759151935 0.423643261
355258716 0.787935912 0.371685951
356051481 0.8117944 0.317279249
356844246 0.831682443 0.262536615
357637011 0.849075853 0.207511529
358429776 0.859574377 0.150368735
359222541 0.864100456 0.091735482
360015306 0.870730221 0.03530655
360808071 0.873396277 -0.022763775
361600836 0.867002069 -0.079010076
362393601 0.863509058 -0.138086348
363186366 0.853948831 -0.19497393
363979131 0.838646888 -0.250058114
364771896 0.819838821 -0.304776817
365564661 0.798437654 -0.356845647
366357426 0.773687362 -0.406864136
367150191 0.745301306 -0.454870373
367942956 0.714102566 -0.502269506
368735721 0.680129945 -0.548709571
369528486 0.645619213 -0.591772258
370321251 0.60705465 -0.633248209
371114016 0.565671324 -0.669610321
371906781 0.522038578 -0.706539034
372699546 0.4745166 -0.738959908
373492311 0.425310909 -0.766654074
374285076 0.374220639 -0.790938854
375077841 0.32207489 -0.813414335
375870606 0.269544392 -0.831784844
376663371 0.215080052 -0.847646117
377456136 0.159915596 -0.860873043
378248901 0.103301085 -0.868264138
379041666 0.046761967 -0.872879385
379834431 -0.010564844 -0.874709427
380627196 -0.067612938 -0.870992302
381419961 -0.124081611 -0.864373981
382212726 -0.180677264 -0.852657437
383005491 -0.235797017 -0.838198244
383798256 -0.290833801 -0.816390097
384591021 -0.343222409 -0.794806122
385383786 -0.394993126 -0.770206868
386176551 -0.447054713 -0.740433812
386969316 -0.496184378 -0.708805263
387762081 -0.542217016 -0.673201322
388554846 -0.586523354 -0.632970035
389347611 -0.626447021 -0.590776264
390140376 -0.663154423 -0.543407499
390933141 -0.69730556 -0.494537711
391725906 -0.729422807 -0.444358348
392518671 -0.757404506 -0.391259163
393311436 -0.782560229 -0.33730036
394104201 -0.803935706 -0.282271742
394896966 -0.821544766 -0.223721548
395689731 -0.834146559 -0.164494663
396482496 -0.842086672 -0.105376876
397275261 -0.849242627 -0.043157871
398068026 -0.849078714 0.017477585
398860791 -0.842602193 0.078274331
399653556 -0.83241868 0.139815807
400446336 -0.819161295 0.199795082
401239100 -0.804033935 0.259670734
402031864 -0.782859325 0.318851441
402824628 -0.755878627 0.374260038
403617392 -0.725849926 0.428234159
404410156 -0.692876636 0.481153011
405202920 -0.655214965 0.530609607
405995684 -0.61366111 0.577290832
406788448 -0.568584144 0.620324671
407581212 -0.520383119 0.659009754
408373976 -0.470941096 0.696028113
409166740 -0.418483138 0.729525387
409959504 -0.362779825 0.760505676
410752268 -0.306112498 0.785665512
411545032 -0.247841641 0.804623484
412337796 -0.190315827 0.821545898
413130560 -0.125356465 0.836976706
413923324 -0.064617075 0.83985269
414716088 -0.003252865 0.842303812
415508852 0.057849466 0.840208947
416301616 0.118469364 0.834161937
417094380 0.178248196 0.824512004
417887144 0.235959574 0.811104774
418679908 0.29489535 0.791218817
419472672 0.352416872 0.768386662
420265436 0.402691632 0.744685709
421058200 0.45453009 0.713361561
421850964 0.504690706 0.67918998
422643728 0.552071273 0.639136016
423436492 0.593925595 0.600948274
424229256 0.635954141 0.558500349
425022020 0.671435832 0.513668417
425814784 0.705287218 0.467629104
426607548 0.738552153 0.416753888
427400312 0.765756905 0.366997659
428193076 0.789445579 0.314694374
428985840 0.810567796 0.26003471
429778604 0.8248564 0.205151066
430571368 0.836567938 0.149836838
431364132 0.843481123 0.093231074
432156896 0.848700702 0.036195307
432949660 0.849692583 -0.020515421
433742424 0.847960591 -0.075736142
434535188 0.84157741 -0.131459265
435327952 0.832228243 -0.186951071
436120716 0.818178355 -0.241194531
436913480 0.801370203 -0.294218271
437706244 0.780192673 -0.34487763
438499008 0.754692256 -0.394077867
439291772 0.727892637 -0.441302865
440084536 0.696536183 -0.487689584
440877300 0.663513779 -0.532043576
441670064 0.627248764 -0.575596034
442462828 0.587553858 -0.613948225
443255592 0.546687245 -0.649828016
444048356 0.502026736 -0.68517369
444841120 0.460965067 -0.713433742
445633884 0.408323019 -0.742254793
446426648 0.359757184 -0.76831305
447219412 0.308756679 -0.789163231
448012176 0.256407916 -0.804120779
448804940 0.203589528 -0.820090174
449597704 0.147974327 -0.833523571
450390468 0.092273794 -0.841248929
451183232 0.036913596 -0.846010267
451975996 -0.020517509 -0.845078289
452768760 -0.076374292 -0.843328952
453561524 -0.132712259 -0.835069835
454354288 -0.188589334 -0.825053155
455147052 -0.242293789 -0.808190703
455939816 -0.297021359 -0.789139926
456732580 -0.349386125 -0.766810119
