# Hz S RI R 50
100000 0.997913122 -0.055912289
892764 0.876859605 -0.480861663
1685528 0.587064921 -0.808138668
2478292 0.187684923 -0.977300345
3271056 -0.240731254 -0.96060723
4063820 -0.616568624 -0.76682645
4856584 -0.872233271 -0.43901661
5649348 -0.968548953 -0.039711333
6442112 -0.900411784 0.359121054
7234876 -0.660803914 0.693683743
8027640 -0.311976909 0.900861322
8820404 0.093056179 0.947682738
9613168 0.483438134 0.820337772
10405932 0.785830974 0.539266765
11198696 0.941742956 0.155007645
11991460 0.91902405 -0.259264379
12784224 0.723555624 -0.623269498
13576988 0.39414215 -0.868409037
14369752 -0.004601526 -0.951054394
15162516 -0.39700064 -0.860517263
15955280 -0.713024318 -0.617087781
16748044 -0.901015222 -0.267165094
17540808 -0.928424417 0.128190889
18333572 -0.789193034 0.49984306
19126336 -0.507855534 0.781246244
19919100 -0.133864253 0.920190095
20711864 0.26677826 0.889572739
21504628 0.617875158 0.692353904
22297392 0.852323293 0.365751415
23090156 0.927247405 -0.027991157
23882920 0.829732 -0.413292735
24675684 0.582422733 -0.721026659
25468448 0.232762962 -0.897894442
26261212 -0.155263632 -0.913511931
27053976 -0.514273464 -0.768265783
27846740 -0.780724883 -0.488898992
28639504 -0.908933103 -0.124285407
29432268 -0.87450999 0.262869238
30225032 -0.680784523 0.602065443
31017796 -0.361483961 0.830050289
31810560 0.026859359 0.901967585
32603324 0.410560518 0.803569793
33396088 0.715814888 0.552530944
34188852 0.88447678 0.197002649
34981616 0.887226879 -0.193313315
35774380 0.728412508 -0.543888211
36567144 0.441256046 -0.79477787
37359908 0.081234142 -0.904422461
38152672 -0.289774984 -0.857759594
38945436 -0.609142422 -0.665085673
39738200 -0.822946488 -0.357458531
40530964 -0.892908155 0.013548241
41323728 -0.803627967 0.384498417
42116492 -0.562604784 0.687394618
42909256 -0.21080403 0.860712587
43702020 0.183264881 0.866274714
44494784 0.540782809 0.701431751
45287548 0.790913283 0.401011258
46080312 0.887583315 0.028031406
46873076 0.82019788 -0.345197319
47665840 0.607642352 -0.64956206
48458604 0.295247107 -0.839892208
49251368 -0.063079707 -0.887762129
50044132 -0.409743279 -0.788532018
50836896 -0.688784837 -0.557758927
51629660 -0.851406812 -0.230746164
52422424 -0.866173326 0.140470102
53215188 -0.721412479 0.489866077
54007952 -0.436894178 0.749191164
54800716 -0.064034007 0.8618173
55593480 0.321968883 0.800507783
56386244 0.641047298 0.578834414
57179008 0.831918418 0.245401456
57971772 0.861557006 -0.129956066
58764536 0.733752131 -0.476451933
59557300 0.481792956 -0.732945084
60350064 0.153395622 -0.864369571
61142828 -0.196886464 -0.854698121
61935592 -0.513557076 -0.707014799
62728356 -0.747416079 -0.44424951
63521120 -0.857106566 -0.103208802
64313884 -0.81702739 0.259949952
65106648 -0.622468948 0.581783473
65899412 -0.303579807 0.793343901
66692176 0.081404574 0.843407154
67484940 0.4501217 0.718397915
68277704 0.723198235 0.446518868
69070468 0.848688483 0.090011544
69863232 0.811910271 -0.276317805
70655996 0.631077408 -0.586114525
71448760 0.349497824 -0.788776099
72241524 0.016119794 -0.863074183
73034288 -0.317412048 -0.803652465
73827052 -0.602182209 -0.615291535
74619816 -0.791243672 -0.327482461
75412580 -0.850397348 0.021600026
76205344 -0.756143391 0.373594492
76998108 -0.514745473 0.659045457
77790872 -0.165484666 0.81482774
78583636 0.221320062 0.797908246
79376400 0.559882879 0.610493063
80169264 0.775695145 0.298550665
80962028 0.834500014 -0.06702701
81754792 0.738202452 -0.411866009
82547556 0.514042019 -0.675434529
83340320 0.211986988 -0.825017929
84133084 -0.118827268 -0.844460308
84925848 -0.429890841 -0.735013902
85718612 -0.674458503 -0.510891556
86511376 -0.814125061 -0.203050494
87304140 -0.819142162 0.14562644
88096904 -0.675124228 0.471785962
88889668 -0.394551962 0.715854346
89682432 -0.025074476 0.812532961
90475196 0.354016542 0.733511984
91267960 0.652653932 0.488613545
92060724 0.809251427 0.146947517
92853488 0.799409449 -0.218772724
93646252 0.642209351 -0.531326532
94439016 0.381444603 -0.746100485
95231780 0.067065834 -0.837763845
96024544 -0.252207458 -0.800890386
96817308 -0.533469498 -0.648477852
97610072 -0.737083137 -0.395787328
98402836 -0.825207293 -0.075955554
99195600 -0.778053522 0.262632876
99988364 -0.586074531 0.562456071
100781128 -0.273327916 0.756622433
101573892 0.102261766 0.792624473
102366656 0.457209616 0.654943883
103159420 0.707782745 0.374274492
103952184 0.805662989 0.02111881
104744948 0.744276881 -0.327985614
105537712 0.550483524 -0.609185874
106330476 0.26870507 -0.781473159
107123240 -0.049586221 -0.828129768
107916004 -0.357306033 -0.749091267
108708768 -0.610844731 -0.557103097
109501532 -0.772522509 -0.27568823
110294296 -0.809630274 0.054761502
111087060 -0.703585684 0.383200705
111879824 -0.459401935 0.645112812
112672588 -0.115611992 0.776586771
113465352 0.257506281 0.739461898
114258116 0.57284975 0.538361549
115050880 0.760820686 0.222714349
115843644 0.790271699 -0.131451144
116636408 0.671486794 -0.452012121
117429172 0.441747218 -0.686423838
118221936 0.14829351 -0.807491362
119014700 -0.161235153 -0.805370569
119807464 -0.445779949 -0.687285363
120600228 -0.666592717 -0.467527478
121392992 -0.788206577 -0.171675056
122185756 -0.780972003 0.160898685
122978520 -0.628136456 0.472868084
123771284 -0.344006925 0.696202814
124564048 0.020274674 0.77033478
125356812 0.382192939 0.667717635
126149576 0.653028964 0.414230376
126942340 0.776745438 0.075793482
127735104 0.743089735 -0.26794824
128527868 0.577750027 -0.552850604
129320632 0.324201196 -0.740719795
130113396 0.027555773 -0.81353414
130906160 -0.270221203 -0.769364595
131698924 -0.529543578 -0.616711974
132491688 -0.715498149 -0.37169516
133284452 -0.793225049 -0.064236864
134077216 -0.737323164 0.263160198
134869980 -0.538754463 0.549434483
135662744 -0.221494719 0.724797427
136455508 0.14971067 0.736254453
137248272 0.48645839 0.575470864
138041036 0.706447482 0.282627433
138833800 0.769571125 -0.064647927
139626564 0.681731104 -0.389075756
140419328 0.4783445 -0.636182248
141212092 0.207255765 -0.777114689
142004856 -0.087914429 -0.802469134
142797620 -0.36766985 -0.71802324
143590384 -0.597485125 -0.533376395
144383148 -0.745232224 -0.268885493
145175912 -0.779282629 0.044725947
145968676 -0.675720214 0.361298024
146761440 -0.433182597 0.614685177
147554204 -0.0870855 0.735256195
148346968 0.28246051 0.679659664
149139732 0.581056714 0.45636329
149932496 0.737410664 0.130299761
150725260 0.73166114 -0.214440718
151518024 0.587606191 -0.506633341
152310788 0.352291852 -0.704787075
153103552 0.070947095 -0.794306874
153896316 -0.216204807 -0.771547734
154689080 -0.473015516 -0.645797193
155481844 -0.668115377 -0.431373536
156274608 -0.770221114 -0.148809164
157067372 -0.751830756 0.166133493
157860136 -0.59478712 0.460377037
158652900 -0.310231447 0.667089343
159445664 0.049447234 0.722357988
160238528 0.398864537 0.600337445
161031292 0.647688806 0.333147227
161824056 0.742223441 -0.006689225
162616820 0.681491076 -0.334580004
163409584 0.500530481 -0.591212332
164202348 0.247156083 -0.746467649
164995112 -0.033325102 -0.793660342
165787876 -0.305411785 -0.735745847
166580640 -0.537705779 -0.584056794
167373404 -0.701904177 -0.353248625
168166168 -0.769694387 -0.066127099
168958932 -0.718200564 0.240498349
169751696 -0.531042635 0.514041483
170544460 -0.225262477 0.685929596
171337224 0.140368372 0.696242868
172129988 0.4708696 0.529015421
172922752 0.67875421 0.228546962
173715516 0.720922172 -0.118637785
174508280 0.612753331 -0.43020758
175301044 0.397543966 -0.652114093
176093808 0.127319961 -0.763980388
176886572 -0.154533147 -0.76785165
177679336 -0.413042247 -0.668467581
178472100 -0.618170678 -0.480960518
179264864 -0.74124825 -0.224045589
180057628 -0.757131636 0.073213405
180850392 -0.646678566 0.367120236
181643156 -0.407790899 0.598507165
182435920 -0.076423093 0.703342914
183228684 0.275705039 0.641625285
184021448 0.557343363 0.422358602
184814212 0.703755438 0.106102302
185606976 0.692454516 -0.225869014
186399740 0.548866689 -0.505168318
187192504 0.317698329 -0.691992044
187985268 0.043904837 -0.770475685
188778032 -0.231181874 -0.741553962
189570796 -0.474972486 -0.613466441
190363560 -0.656879484 -0.400535315
191156324 -0.746413886 -0.123476974
191949088 -0.715580642 0.181833088
192741852 -0.549912214 0.46261689
193534616 -0.26004368 0.649755835
194327380 0.096828557 0.68055129
195120144 0.429105073 0.536120891
195912908 0.647677421 0.257306247
196705672 0.711216866 -0.074034139
197498436 0.628857374 -0.379375636
198291200 0.442628711 -0.60820508
199083964 0.197444498 -0.739655733
199876728 -0.067436337 -0.770173072
200669492 -0.321247756 -0.707243919
201462256 -0.537374854 -0.557463705
202255020 -0.689004778 -0.333874762
203047784 -0.748301982 -0.05481629
203840548 -0.686733901 0.24292609
204633312 -0.490671366 0.50374943
205426076 -0.178230971 0.656010687
206218840 0.182648077 0.640449881
207011604 0.491958111 0.449167877
207804368 0.664947032 0.142149895
208597132 0.676710009 -0.191853687
209389896 0.550822973 -0.474571138
210182660 0.336117595 -0.668531775
210975424 0.079945906 -0.759107112
211768188 -0.181740373 -0.750466167
212560952 -0.418818384 -0.651255011
213353716 -0.607757806 -0.473535239
214146480 -0.723410367 -0.229807078
214939244 -0.737990975 0.053032413
215732008 -0.629101932 0.338130295
216524772 -0.392681837 0.564208805
217317536 -0.05899259 0.662371695
218110300 0.292618691 0.585225164
218903064 0.560874402 0.346723079
219695828 0.677185535 0.021604146
220488592 0.635007083 -0.299596995
221281356 0.471463352 -0.551301598
222074120 0.238340586 -0.705633044
222866884 -0.020863793 -0.757934153
223659648 -0.27221179 -0.714596331
224452412 -0.490248054 -0.587190687
225245176 -0.652786612 -0.388190269
226037940 -0.734050452 -0.131590619
226830704 -0.708291947 0.15318033
227623468 -0.556071639 0.421570569
228416232 -0.281816691 0.606985449
229208996 0.066086858 0.644257664
230001760 0.394566208 0.50452429
230794524 0.609535634 0.227122575
231587288 0.664896368 -0.102476641
232380052 0.573025524 -0.400114029
233172816 0.38075748 -0.61676234
233965580 0.13644649 -0.731932759
234758344 -0.120443753 -0.748259425
235551108 -0.360706388 -0.673222482
236343872 -0.556711792 -0.518142879
237136636 -0.688882827 -0.29579088
237929400 -0.731711268 -0.027765825
238722164 -0.658200442 0.254345327
239514928 -0.457111477 0.49623081
240307792 -0.148572489 0.628834009
241100556 0.201778814 0.596755683
241893320 0.492295801 0.396320194
242686084 0.644689261 0.089545138
243478848 0.638132274 -0.231529846
244271612 0.50319904 -0.496016204
245064376 0.290767788 -0.669999957
245857140 0.045472402 -0.746258199
246649904 -0.200174197 -0.731269121
247442668 -0.421046614 -0.633306384
248235432 -0.596232831 -0.462153583
249028196 -0.705208778 -0.231784656
249820960 -0.718991041 0.040839679
250613724 -0.611776411 0.317320555
251406488 -0.374727219 0.535851657
252199252 -0.038937419 0.621342539
252992016 0.30686447 0.525423586
253784780 0.554520547 0.269770801
254577544 0.640199005 -0.058386016
255370308 0.568969726 -0.363739252
256163072 0.3917768 -0.587530314
256955836 0.160098955 -0.714605987
257748600 -0.084830656 -0.745940804
258541364 -0.31547752 -0.69189006
259334128 -0.512526154 -0.563667416
260126892 -0.656713128 -0.372648507
260919656 -0.72676891 -0.130808591
261712420 -0.698929965 0.136934876
262505184 -0.552860438 0.392032831
263297948 -0.288306385 0.571723401
264090712 0.051315601 0.606814622
264883476 0.375181227 0.469127118
265676240 0.584211945 0.192065536
266469004 0.633142828 -0.136229202
267261768 0.536450982 -0.427247285
268054532 0.345629274 -0.632807433
268847296 0.110257677 -0.739863216
269640060 -0.133043184 -0.756020307
270432824 -0.390456765 -0.648254334
271225588 -0.566676318 -0.501469254
272018352 -0.683175981 -0.299629986
272811116 -0.723433136 -0.05104462
273603880 -0.662800967 0.214497253
274396644 -0.481077879 0.450271576
275189408 -0.189322531 0.591611385
275982172 0.15501748 0.571556985
276774936 0.448142886 0.375012248
277567700 0.600932121 0.066938154
278360464 0.584971427 -0.256378471
279153228 0.436971306 -0.513421297
279945992 0.215407922 -0.67157489
280738756 -0.030182428 -0.727528274
281531520 -0.26643595 -0.694565236
282324284 -0.471160948 -0.585239708
283117048 -0.625091671 -0.408026456
283909812 -0.711871027 -0.183201402
284702576 -0.71042335 0.074451856
285495340 -0.599882841 0.328252285
286288104 -0.375197887 0.52846384
287080868 -0.061773996 0.609131336
287873632 0.266746997 0.525096833
288666396 0.51347059 0.286578983
289459160 0.609247207 -0.030687633
290251924 0.549048542 -0.334030747
291044688 0.377392381 -0.562291145
291837452 0.150280624 -0.690618872
292630216 -0.093134976 -0.721819162
293422980 -0.320833057 -0.667874813
294215744 -0.513530075 -0.53932172
295008508 -0.64962995 -0.348357528
295801272 -0.712346315 -0.110722467
296594036 -0.677835822 0.151090294
297386800 -0.526339471 0.396011561
298179564 -0.257153213 0.563094496
298972328 0.08067622 0.577895581
299765092 0.388685077 0.418064177
300557856 0.570644855 0.12879233
301350620 0.58757466 -0.190400406
302143384 0.468460768 -0.460692197
302936148 0.270193725 -0.638068616
303728912 0.038010638 -0.717921137
304521676 -0.19149214 -0.712276875
305314440 -0.397354364 -0.631491065
306107204 -0.564490675 -0.48697111
306899968 -0.675561964 -0.288397282
307692732 -0.709790349 -0.049907494
308485496 -0.645808458 0.202110037
309278260 -0.468314439 0.42892152
310071024 -0.181011244 0.559477508
310863788 0.154529631 0.53311634
311656552 0.436747223 0.337857395
312449316 0.576903522 0.032875526
313242080 0.556500315 -0.278641194
314034844 0.408502519 -0.524027645
314827608 0.195199519 -0.670373797
315620372 -0.040202032 -0.721621334
316413136 -0.261356502 -0.687919914
317205900 -0.453662574 -0.583873808
317998664 -0.601525068 -0.421258985
318791428 -0.688012063 -0.210161566
319584192 -0.69293487 0.033188186
320377056 -0.593865215 0.278798758
321169821 -0.382521808 0.479556769
321962586 -0.072716005 0.567027926
322755351 0.256794214 0.482101708
323548116 0.496285885 0.237491592
324340881 0.577346026 -0.084801264
325133646 0.498996645 -0.378716379
325926411 0.316874176 -0.589988648
326719176 0.089694745 -0.697625339
327511941 -0.143716156 -0.711485266
328304706 -0.355184435 -0.646384298
329097471 -0.530264437 -0.518944382
329890236 -0.656208097 -0.337141275
330683001 -0.710020482 -0.113375946
331475766 -0.678066968 0.132601693
332268531 -0.538404464 0.366646796
333061296 -0.287476062 0.526621937
333854061 0.03327962 0.55533117
334646826 0.336677074 0.414581716
335439591 0.525535225 0.141434401
336232356 0.551125407 -0.172001093
337025121 0.442916154 -0.43875876
337817886 0.250248819 -0.6178568
338610651 0.024983551 -0.697816967
339403416 -0.196639478 -0.691888928
340196181 -0.395618289 -0.613638639
340988946 -0.555589616 -0.473659187
341781711 -0.661711454 -0.281797707
342574476 -0.692538976 -0.052022248
343367241 -0.628576159 0.194557845
344160006 -0.449307411 0.408765256
344952771 -0.165190413 0.53049159
345745536 0.165157511 0.490155667
346538301 0.431416869 0.278366386
347331066 0.545341491 -0.029476322
348123831 0.498111873 -0.329012811
348916596 0.337423682 -0.550071656
349709361 0.125288456 -0.674135267
350502126 -0.097613297 -0.708540797
351294891 -0.304858773 -0.666088879
352087656 -0.481600344 -0.561656177
352880421 -0.615514874 -0.407902419
353673186 -0.697054743 -0.210003271
354465951 -0.701777875 0.0159722
355258716 -0.613231956 0.252447009
356051481 -0.415549159 0.448253035
356844246 -0.122687458 0.539343357
357637011 0.199562311 0.467931419
358429776 0.443021506 0.235128864
359222541 0.526908814 -0.078015804
360015306 0.448911368 -0.367400169
360808071 0.269087046 -0.569832146
361600836 0.04857121 -0.669019579
362393601 -0.173205673 -0.679284989
363186366 -0.370445847 -0.614043533
363979131 -0.531324148 -0.491074025
364771896 -0.643112897 -0.319139301
365564661 -0.692911386 -0.109290115
366357426 -0.660499453 0.11907377
367150191 -0.529132187 0.339294254
367942956 -0.292881131 0.49482125
368735721 0.016006786 0.524869322
369528486 0.312093764 0.38897863
370321251 0.495266228 0.120213568
371114016 0.516031205 -0.187825113
371906781 0.401058733 -0.447832584
372699546 0.205941602 -0.611572444
373492311 -0.014922009 -0.67827779
374285076 -0.228989213 -0.663082122
375077841 -0.415166765 -0.579161942
375870606 -0.560801148 -0.439402014
376663371 -0.658073484 -0.256934434
377456136 -0.684945106 -0.038991324
378248901 -0.624170958 0.190801098
379041666 -0.457696497 0.397392481
379834431 -0.189359053 0.519607484
380627196 0.129445075 0.490938842
381419961 0.396541595 0.291914105
382212726 0.516311824 -0.006084382
383005491 0.475418537 -0.304304629
383798256 0.318188369 -0.523299694
384591021 0.107199065 -0.646125793
385383786 -0.111069127 -0.67602986
386176551 -0.311122208 -0.63191998
386969316 -0.479917705 -0.528071224
387762081 -0.604042768 -0.373365432
388554846 -0.67071551 -0.181275174
389347611 -0.666937887 0.037804771
390140376 -0.568006396 0.25840038
390933141 -0.363708168 0.433727353
391725906 -0.074094302 0.497389227
392518671 0.227922305 0.40061143
393311436 0.439039826 0.156926631
394104201 0.489984631 -0.146658957
394896966 0.395576745 -0.414050281
395689731 0.215801075 -0.590539753
396482496 0.00195667 -0.671994626
397275261 -0.203635185 -0.670337617
398068026 -0.388053745 -0.605830907
398860791 -0.537297785 -0.487803936
399653556 -0.640393614 -0.327513277
400446336 -0.690069794 -0.132850334
401239100 -0.662663459 0.08518809
402031864 -0.543592154 0.296864569
402824628 -0.321294546 0.454200506
403617392 -0.01945853 0.488704204
404410156 0.275807082 0.353930681
405202920 0.452659815 0.080218665
405995684 0.460214108 -0.228801205
406788448 0.329285234 -0.473585605
407581212 0.128296092 -0.617922484
408373976 -0.088853105 -0.666201055
409166740 -0.289501845 -0.637744188
409959504 -0.460327118 -0.545744001
410752268 -0.589482128 -0.406294375
411545032 -0.670235931 -0.230471402
412337796 -0.686367213 -0.025309709
413130560 -0.622758388 0.190269574
413923324 -0.461527407 0.38086766
414716088 -0.205625191 0.493623882
415508852 0.097520366 0.464221388
416301616 0.352068245 0.272916525
417094380 0.468143999 -0.016982529
417887144 0.423749506 -0.306143969
418679908 0.267886221 -0.517884075
419472672 0.062504395 -0.630286812
420265436 -0.151333257 -0.654348671
421058200 -0.342297852 -0.604424476
421850964 -0.498145252 -0.4994542
422643728 -0.612514674 -0.351247429
423436492 -0.674678146 -0.167975202
424229256 -0.667719006 0.038551546
425022020 -0.576027691 0.246925771
425814784 -0.386309623 0.418960601
426607548 -0.104167267 0.490341156
427400312 0.195114836 0.400400847
428193076 0.404755502 0.155372351
428985840 0.4513098 -0.150406584
429778603 0.346855282 -0.415396392
430571368 0.15539819 -0.581915855
431364132 -0.057797059 -0.647838354
432156896 -0.263454347 -0.633174061
432949660 -0.434832841 -0.556981682
433742424 -0.572215199 -0.431552112
434535188 -0.66105628 -0.270153731
435327952 -0.694203078 -0.080430209
436120716 -0.657673954 0.12611024
436913480 -0.534253716 0.32000783
437706244 -0.31447646 0.461532562
438499008 -0.02589086 0.484927326
439291772 0.253783732 0.350547283
440084536 0.420161902 0.08618436
440877300 0.425517588 -0.211974725
441670064 0.296072304 -0.448214292
442462828 0.099277332 -0.589491248
443255592 -0.111916065 -0.633702754
444048356 -0.304901659 -0.602758228
444841120 -0.464445114 -0.515120863
445633884 -0.588029563 -0.380471974
446426648 -0.660982906 -0.211712941
447219412 -0.674863219 -0.016815744
448012176 -0.611416637 0.186301216
448804940 -0.454983949 0.366336077
449597704 -0.208689972 0.472391396
450390468 0.086436435 0.438438266
451183232 0.332485079 0.243760928
451975996 0.435182631 -0.049722738
452768760 0.373355001 -0.334241211
453561524 0.203107103 -0.530030906
454354288 -0.006483947 -0.622819483
455147052 -0.21412535 -0.627884089
455939816 -0.392855763 -0.564790904
