! File created by NanoVNA (https://gen111.taobao.com/)
! Start 10000000Hz  Stop 292000000Hz   Points 101
# HZ S MA R 50
!S - Parameter data, F S11
10000000	0.870538743	-143.270019049
12820000	0.817605714	-29.308457206
15640000	0.809907741	88.205072756
18460000	0.830388044	-152.802350309
21280000	0.790090006	-37.725897608
24100000	0.777897583	81.658187117
26920000	0.801696200	-160.911569924
29740000	0.771077296	-43.987828269
32560000	0.751277266	72.109477765
35380000	0.778696721	-167.289780726
38200000	0.754834793	-53.042585336
41020000	0.728558589	62.810516047
43840000	0.761232356	-172.926469569
46660000	0.736051088	-60.825012099
49480000	0.714059717	56.647976671
52300000	0.736785996	179.432276726
55120000	0.730347222	-68.113194915
57940000	0.686512480	45.048999385
60760000	0.730988275	169.184628912
63580000	0.710231165	-67.472298941
66400000	0.678158924	37.329009360
69220000	0.705047752	170.113770894
72040000	0.707538719	-83.081593911
74860000	0.660841803	31.131106104
77680000	0.688398699	158.533751459
80500000	0.698332525	-90.576281680
83320000	0.649566212	21.806347835
86140000	0.668542388	150.053685866
88960000	0.694094513	-97.222948237
91780000	0.634671928	17.297914752
94600000	0.651902563	143.538116576
97420000	0.681213601	-100.650140371
100240000	0.621150201	6.140524868
103060000	0.637880184	135.733897279
105880000	0.664452910	-112.815316982
108700000	0.636851614	2.557697189
111520000	0.596427586	132.376446704
114340000	0.674840927	-110.988598243
117160000	0.605638849	-11.778520584
119980000	0.602472709	126.699319133
122800000	0.654307644	-123.377651136
125620000	0.611035240	-12.279272235
128440000	0.565605739	109.709449961
131260000	0.654228257	-118.696643834
134080000	0.621341941	-36.773777338
136900000	0.545298933	112.703182259
139720000	0.667651070	-133.731777458
142540000	0.583222507	-29.729805265
145360000	0.529562719	105.094445867
148180000	0.642033080	-140.456572275
151000000	0.603532516	-50.422328256
153820000	0.512778140	102.457355083
156640000	0.663414987	-152.640531854
159460000	0.532315311	-32.127795117
162280000	0.513156095	72.610095301
165100000	0.617612171	-156.300861277
167920000	0.577883615	-52.272343166
170740000	0.505546141	81.149804392
173560000	0.594074630	-154.245040383
176380000	0.579516702	-58.823626113
179200000	0.472908466	69.887029294
182020000	0.599841058	-160.187902168
184840000	0.563176426	-58.519539691
187660000	0.461017683	58.134673870
190480000	0.564798009	-165.602055544
193300000	0.600505700	-77.225123586
196120000	0.422012596	52.448624516
198940000	0.588969746	-175.997808221
201760000	0.561841475	-80.256741313
204580000	0.459913974	48.790377109
207400000	0.538425537	-178.087951332
210220000	0.579810824	-84.207000482
213040000	0.423893108	28.014861452
215860000	0.564110093	177.694503170
218680000	0.555493197	-92.605205548
221500000	0.439617530	29.029087097
224320000	0.514059971	165.355641963
227140000	0.562427830	-91.331851543
229960000	0.429447622	16.293460552
232780000	0.495704959	159.128969164
235600000	0.557030000	-96.787116248
238420000	0.454966753	-4.637884066
241240000	0.464430404	154.460232737
244060000	0.576036284	-105.135003809
246880000	0.442315192	-7.954972766
249700000	0.441816516	151.128073598
252520000	0.589821793	-106.206102685
255340000	0.424557406	-14.574153105
258160000	0.459486932	160.094335068
260980000	0.589257478	-114.920004613
263800000	0.385267797	-24.600246835
266620000	0.452492828	136.017881874
269440000	0.554723328	-121.698329206
272260000	0.426679892	-22.192515566
275080000	0.400854835	131.941404948
277900000	0.556123704	-121.557004589
280720000	0.449008729	-32.025424964
283540000	0.370540541	136.036038378
286360000	0.557257392	-128.882960746
289180000	0.463074551	-47.938852714
292000000	0.342641474	121.820386761
