! File created by NanoVNA (https://gen111.taobao.com/)
! Start 10000000Hz  Stop 292000000Hz   Points 101
# HZ S MA R 50
!S - Parameter data, F S11
10000000	0.943051028	-44.374850228
12820000	0.945964259	-56.818539276
15640000	0.949581879	-69.170467753
18460000	0.954602368	-81.652560238
21280000	0.959239562	-94.168588257
24100000	0.963066105	-106.701680194
26920000	0.967363492	-119.274115527
29740000	0.970988134	-131.971509376
32560000	0.973643140	-144.742603336
35380000	0.974814870	-157.597837947
38200000	0.974798697	-170.569504700
41020000	0.973502861	176.301942723
43840000	0.970931886	163.035636278
46660000	0.965768620	149.694657354
49480000	0.959007615	136.284503394
52300000	0.951511054	122.836280669
55120000	0.944338603	109.326518796
57940000	0.936916630	95.742265941
60760000	0.929229463	82.148248952
63580000	0.921699755	68.603547966
66400000	0.915500994	55.185630443
69220000	0.909672169	41.890319013
72040000	0.905396103	28.763424411
74860000	0.902802032	15.826574227
77680000	0.901373614	3.116041516
80500000	0.901089102	-9.437438812
83320000	0.902853509	-21.779567157
86140000	0.905414164	-33.902405351
88960000	0.909537734	-45.823964605
91780000	0.914088308	-57.585755628
94600000	0.918859082	-69.216840381
97420000	0.924556572	-80.749456226
100240000	0.929802883	-92.256087426
103060000	0.935274281	-103.771498465
105880000	0.940181304	-115.365333812
108700000	0.944540431	-127.072875802
111520000	0.947035418	-138.945574643
114340000	0.948971381	-151.016676892
117160000	0.949410072	-163.363830186
119980000	0.948254868	-175.979090937
122800000	0.945906741	171.083385285
125620000	0.941424436	157.789705723
128440000	0.935825296	144.145557814
131260000	0.928332555	130.203537724
134080000	0.919626684	115.957760644
136900000	0.909971576	101.529110977
139720000	0.900039098	86.929691296
142540000	0.890347713	72.396399044
145360000	0.882617643	57.841399579
148180000	0.875847041	43.499272040
151000000	0.871456780	29.462659956
153820000	0.869018628	15.732303744
156640000	0.868241114	2.458030769
159460000	0.869689502	-10.391523479
162280000	0.871957465	-22.845300185
165100000	0.876113809	-34.861167015
167920000	0.880846603	-46.499341225
170740000	0.886402293	-57.818271335
173560000	0.892566839	-68.918424789
176380000	0.898762705	-79.794148209
179200000	0.904216432	-90.519844663
182020000	0.911177177	-101.180947580
184840000	0.916668417	-111.870529302
187660000	0.921343864	-122.639733875
190480000	0.925147256	-133.500806493
193300000	0.928224312	-144.668776896
196120000	0.929055846	-156.134532638
198940000	0.928752940	-168.029144906
201760000	0.926750236	179.604247354
204580000	0.922230406	166.749298462
207400000	0.916174092	153.287739531
210220000	0.907920124	139.318892990
213040000	0.897299812	124.779571485
215860000	0.885820675	109.702129332
218680000	0.873868653	94.238535186
221500000	0.862126786	78.479206014
224320000	0.851173448	62.663542426
227140000	0.843299768	47.036769803
229960000	0.838127778	31.757618292
232780000	0.835402926	16.902600853
235600000	0.835853292	2.633223635
238420000	0.838291374	-10.963078629
241240000	0.842767812	-23.906748416
244060000	0.846860741	-36.240008931
246880000	0.854620964	-48.015124493
249700000	0.862904753	-59.238054987
252520000	0.870116101	-70.110007134
255340000	0.877269394	-80.529890195
258160000	0.883852166	-90.761804091
260980000	0.890890334	-100.753937832
263800000	0.896501849	-110.709324643
266620000	0.902565034	-120.673758187
269440000	0.905018494	-130.695453304
272260000	0.908489181	-141.021311627
275080000	0.910171839	-151.567260616
277900000	0.909832357	-162.522313450
280720000	0.908290078	-174.111375807
283540000	0.903714756	173.814304818
286360000	0.895557274	160.989276839
289180000	0.885687958	147.449201841
292000000	0.874046049	132.978930579
