! File created by NanoVNA (https://gen111.taobao.com/)
! Start 10000000Hz  Stop 292000000Hz   Points 101
# HZ S MA R 50
!S - Parameter data, F S11
10000000	0.940901775	108.108665469
12820000	0.908508214	38.332119357
15640000	0.907726390	-28.950435186
18460000	0.932561508	-96.985758841
21280000	0.947557750	-168.381803078
24100000	0.924748363	118.210988626
26920000	0.891923407	46.979059006
29740000	0.887074908	-20.626506575
32560000	0.909487382	-87.278544523
35380000	0.928418966	-156.971873281
38200000	0.911519507	129.548064554
41020000	0.878131132	56.614443018
43840000	0.870256072	-12.045717563
46660000	0.891564742	-78.081174731
49480000	0.912194037	-146.174476433
52300000	0.899471326	140.946673093
55120000	0.866244878	66.864182768
57940000	0.855776521	-2.828011527
60760000	0.875434915	-68.122469232
63580000	0.897370503	-134.375222964
66400000	0.889732723	153.313437157
69220000	0.854016480	77.132660792
72040000	0.842003692	5.465587218
74860000	0.862068366	-58.949628914
77680000	0.887793467	-121.165396807
80500000	0.885077385	171.471188491
83320000	0.845355861	95.295821140
86140000	0.819782967	17.000394538
88960000	0.840655194	-54.807469867
91780000	0.873992790	-121.159425205
94600000	0.877478897	170.978777711
97420000	0.843858926	98.496315016
100240000	0.816918969	25.450046063
103060000	0.829188466	-42.774655495
105880000	0.858541404	-107.536889835
108700000	0.866517073	-175.108083290
111520000	0.835100153	110.849999008
114340000	0.805368233	35.331409358
117160000	0.815475481	-34.052175320
119980000	0.845613616	-98.073257085
122800000	0.858258710	-163.866998050
125620000	0.830372973	123.238067206
128440000	0.796508912	47.108694196
131260000	0.802138642	-23.256195738
134080000	0.832290232	-87.214780684
136900000	0.848221291	-152.207867903
139720000	0.824173028	134.870323454
142540000	0.787092141	57.159120694
145360000	0.791184694	-14.175306976
148180000	0.821379519	-77.051124958
151000000	0.840328836	-139.691777689
153820000	0.818552178	148.682971539
156640000	0.776398394	68.651653254
159460000	0.779198473	-5.376131300
162280000	0.812843652	-67.623300529
165100000	0.836545489	-126.587094689
167920000	0.816952677	165.914771522
170740000	0.760598905	83.896065173
173560000	0.754033376	1.747250148
176380000	0.796547435	-65.534984063
179200000	0.829513933	-124.802400011
182020000	0.819386949	171.527916954
184840000	0.765177091	95.880321566
187660000	0.740921576	16.074627389
190480000	0.775914919	-53.085196865
193300000	0.812909267	-113.823560151
196120000	0.809972821	-177.928911419
198940000	0.758494239	105.567851876
201760000	0.733140381	23.935715538
204580000	0.768616354	-45.776556589
207400000	0.809451244	-104.787141016
210220000	0.812618919	-165.431850488
213040000	0.762672106	121.273041820
215860000	0.720091258	37.770522336
218680000	0.752227453	-35.769918261
221500000	0.798315441	-95.940219844
224320000	0.809494639	-154.939790851
227140000	0.763426373	134.524198938
229960000	0.710011948	50.490386730
232780000	0.735030916	-26.443056897
235600000	0.786556959	-87.741701064
238420000	0.806328108	-144.988723077
241240000	0.764303664	147.340663429
244060000	0.694081394	61.971013718
246880000	0.712055384	-21.247526976
249700000	0.774480757	-85.781780530
252520000	0.806023996	-142.231639337
255340000	0.784127614	156.103815197
258160000	0.721018380	81.928978300
260980000	0.705465980	3.835685664
263800000	0.748383077	-62.984083319
266620000	0.781841233	-122.351970479
269440000	0.763332222	172.456340720
272260000	0.699389952	91.516402175
275080000	0.691109517	7.735647850
277900000	0.745001939	-58.941519329
280720000	0.782539929	-114.960195472
283540000	0.772357991	-175.332649439
286360000	0.696868631	106.982876626
289180000	0.669275584	18.698446068
292000000	0.726217335	-52.338001019
