!File created by NanoVNA
# Hz S RI R 50
     50000  1.001263619 -0.018834462
   3549500 -0.111533288 -0.869655616
   7049000 -0.222442144  0.677777536
  10548500  0.805469504  0.229003248
  14048000  0.352627168 -0.694352960
  17547500 -0.465640352  0.266488784
  21047000  0.587532032  0.447649696
  24546500  0.629270976 -0.423647840
  28046000 -0.419935648 -0.164125584
  31545500  0.375784128  0.492242112
  35045000  0.690277888 -0.186695792
  38544500 -0.155178000 -0.383922656
  42044000  0.223612976  0.130926400
  45543500  0.585996096  0.120903728
  49043000  0.263492192 -0.480275648
  52542500 -0.054280032  0.056924836
  56042000  0.312832608  0.228600480
  59541500  0.487449344 -0.271868192
  63041000 -0.131866440 -0.299788096
  66540500  0.056688300  0.273252896
  70040000  0.481711296  0.009113932
  73539500  0.105704688 -0.410029760
  77039000 -0.068574272  0.233337280
  80538500  0.391652032  0.163523696
  84038000  0.268177664 -0.251986928
  87537500  0.065803924 -0.042114240
  91037000  0.042042048  0.064134380
  94536500  0.360832608  0.130559760
  98036000  0.263530160 -0.266598496
 101535500 -0.109549720  0.010246035
 105035000  0.285097824  0.198107104
 108534500  0.341167200 -0.162425824
 112034000 -0.084199744 -0.173236512
 115533500  0.099219760  0.350760160
 119033000  0.512236480  0.016244458
 122532500  0.110185376 -0.329748608
 126032000 -0.062923096  0.209289776
 129531500  0.209820432  0.000000000
 133031000  0.206375568  0.000000000
 136530500  0.208024544  0.000000000
 140030000  0.205774768  0.000000000
 143529500  0.200391376  0.000000000
 147029000  0.196720512  0.000000000
 150528500  0.196019728  0.000000000
 154028000  0.203461632  0.000000000
 157527500  0.211066640  0.000000000
 161027000  0.214966368  0.000000000
 164526500  0.210128016  0.000000000
 168026000  0.202537024  0.000000000
 171525500  0.206445136  0.000000000
 175025000  0.207283024  0.000000000
 178524500  0.204725392  0.000000000
 182024000  0.206734240  0.000000000
 185523500  0.205779008  0.000000000
 189023000  0.207740656  0.000000000
 192522500  0.206824528  0.000000000
 196022000  0.201900256  0.000000000
 199521500  0.202277232  0.000000000
 203021000  0.198538016  0.000000000
 206520500  0.198115408  0.000000000
 210020000  0.202068768  0.000000000
 213519500  0.197023968  0.000000000
 217019000  0.197434976  0.000000000
 220518500  0.202496288  0.000000000
 224018000  0.196642544  0.000000000
 227517500  0.202003888  0.000000000
 231017000  0.229116048  0.000000000
 234516500  0.229896064  0.000000000
 238016000  0.200732000  0.000000000
 241515500  0.199307936  0.000000000
 245015000  0.201799280  0.000000000
 248514500  0.188885568  0.000000000
 252014000  0.201139264  0.000000000
 255513500  0.190003216  0.000000000
 259013000  0.188794800  0.000000000
 262512500  0.328512000  0.000000000
 266012000  0.510162112  0.000000000
 269511500  0.588430016  0.000000000
 273011000  0.615279680  0.000000000
 276510500  0.651141184  0.000000000
 280010000  0.707121216  0.000000000
 283509500  0.771653504  0.000000000
 287009000  0.820144768  0.000000000
 290508500  0.870641088  0.000000000
 294008000  0.909790656  0.000000000
 297507500  0.910271680  0.000000000
 301007000  0.909094720  0.000000000
 304506500  0.925168832  0.000000000
 308006000  0.944909184  0.000000000
 311505500  0.966895872  0.000000000
 315005000  0.990497856  0.000000000
 318504500  1.011474729  0.000000000
 322004000  1.017701626  0.000000000
 325503500  1.014178991  0.000000000
 329003000  1.013748050  0.000000000
 332502500  1.007580757  0.000000000
 336002000  0.999990912  0.000000000
 339501500  0.995789376  0.000000000
 343001000  0.989951680  0.000000000
 346500500  0.992091136  0.000000000
 350000000  0.999063104  0.000000000
