!File created by NanoVNA
# Hz S RI R 50
     50000  1.000630260 -0.018923954
   3549500 -0.104829320 -0.842400384
   7049000 -0.201017616  0.653182272
  10548500  0.797248512  0.240067056
  14048000  0.366031360 -0.677968384
  17547500 -0.421804224  0.243981712
  21047000  0.575488448  0.439820512
  24546500  0.655283840 -0.396853056
  28046000 -0.376937408 -0.181609136
  31545500  0.345623616  0.452397280
  35045000  0.713667968 -0.147851536
  38544500 -0.108259592 -0.396578048
  42044000  0.033283028  0.121013808
  45543500  0.607954112  0.140470624
  49043000  0.312450176 -0.521659264
  52542500 -0.024743352  0.109238704
  56042000  0.377210272  0.237459120
  59541500  0.515047360 -0.295818560
  63041000 -0.108168448 -0.280735488
  66540500  0.122912000  0.167702608
  70040000  0.410531872 -0.041414008
  73539500  0.130308480 -0.393152704
  77039000 -0.064142392  0.204788352
  80538500  0.359461728  0.096873632
  84038000  0.220719040 -0.223061968
  87537500  0.136745808 -0.030577092
  91037000  0.014549378 -0.060662512
  94536500  0.325149888  0.194512416
  98036000  0.344031200 -0.303298432
 101535500 -0.181869872 -0.034819020
 105035000  0.312313088  0.200004352
 108534500  0.321890880 -0.193650960
 112034000 -0.079957024 -0.207248112
 115533500  0.075429664  0.314344864
 119033000  0.487015968  0.013247227
 122532500  0.132731992 -0.360700000
 126032000 -0.131573768  0.168069568
 129531500  0.409614944  0.141809200
 133031000  0.189283072 -0.298269184
 136530500 -0.140731632  0.104556000
 140030000  0.345132864  0.264948304
 143529500  0.414051552 -0.194754144
 147029000 -0.095684896 -0.177647568
 150528500  0.147613248  0.288484032
 154028000  0.443133152 -0.043422848
 157527500  0.067620264 -0.264910192
 161027000 -0.000399075  0.199551296
 164526500  0.410292800  0.100415800
 168026000  0.276209600 -0.282327232
 171525500 -0.137173904 -0.068069976
 175025000  0.208728128  0.251958128
 178524500  0.394545024 -0.112091624
 182024000  0.007332539 -0.257989408
 185523500 -0.047325128  0.184496000
 189023000  0.339434400  0.090573448
 192522500  0.145705472 -0.222769024
 196022000 -0.108583216  0.096306960
 199521500  0.271187104  0.216959648
 203021000  0.306214816 -0.134756304
 206520500 -0.057489680 -0.131908896
 210020000  0.025015370  0.242399056
 213519500  0.310772512  0.064351456
 217019000  0.075296048 -0.114416016
 220518500 -0.031160512  0.178246192
 224018000  0.280674080  0.193453152
 227517500  0.185488112 -0.066368416
 231017000  0.003490495  0.125102848
 234516500  0.239438768  0.233827344
 238016000  0.293125280  0.005590373
 241515500  0.069572496 -0.006189969
 245015000  0.107083664  0.229037872
 248514500  0.326948864  0.115323872
 252014000  0.110580640 -0.015250065
 255513500  0.090807352  0.248951120
 259013000  0.344061696  0.230745136
 262512500  0.292656064  0.012005918
 266012000  0.143357248  0.143026128
 269511500  0.327137024  0.235974880
 273011000  0.418757216  0.041965252
 276510500  0.231377392 -0.047776460
 280010000  0.162980048  0.124241464
 283509500  0.318690944  0.187481728
 287009000  0.378697248  0.023446470
 290508500  0.186084880  0.032998350
 294008000  0.293230848  0.221620960
 297507500  0.475637248  0.091289368
 301007000  0.333834656 -0.087541256
 304506500  0.217731488  0.100812760
 308006000  0.422442720  0.135191344
 311505500  0.445002048 -0.051213840
 315005000  0.300644672 -0.041190528
 318504500  0.378999904  0.042308548
 322004000  0.448451712 -0.063675172
 325503500  0.356639424 -0.155094400
 329003000  0.297207680 -0.076832888
 332502500  0.381362112 -0.105244496
 336002000  0.303420000 -0.213614736
 339501500  0.180523776 -0.131535712
 343001000  0.279994528 -0.060410296
 346500500  0.987113344  0.000000000
 350000000  0.996428672  0.000000000
