!File created by NanoVNA
# Hz S RI R 50
     50000  1.000723362 -0.018860692
   3549500 -0.104892032 -0.842497472
   7049000 -0.201049280  0.653203008
  10548500  0.797071616  0.240072096
  14048000  0.366006688 -0.677937728
  17547500 -0.422006720  0.244272400
  21047000  0.575504512  0.439748064
  24546500  0.655349568 -0.396713376
  28046000 -0.377145504 -0.182162592
  31545500  0.348378464  0.452238720
  35045000  0.713994432 -0.145581648
  38544500 -0.106975496 -0.402318048
  42044000  0.047599456  0.119710368
  45543500  0.605103296  0.142188864
  49043000  0.317449504 -0.521749664
  52542500 -0.038465940  0.123251896
  56042000  0.372589792  0.235034576
  59541500  0.515925952 -0.294253376
  63041000 -0.109785936 -0.282364512
  66540500  0.124022096  0.168485168
  70040000  0.410457184 -0.042229876
  73539500  0.131650912 -0.390918208
  77039000 -0.071292720  0.207787104
  80538500  0.358412864  0.094290696
  84038000  0.221842976 -0.222766096
  87537500  0.134495616 -0.029076576
  91037000  0.017256912 -0.062148548
  94536500  0.323137216  0.195194992
  98036000  0.345548512 -0.302183392
 101535500 -0.187480864 -0.040382924
 105035000  0.312684384  0.203930944
 108534500  0.322746080 -0.198680288
 112034000 -0.077469360 -0.204493504
 115533500  0.074789232  0.314574912
 119033000  0.487494656  0.013461012
 122532500  0.132357432 -0.360619968
 126032000 -0.131547216  0.168827568
 129531500  0.409986944  0.141879936
 133031000  0.189212816 -0.298600640
 136530500 -0.140375232  0.105395960
 140030000  0.345554240  0.264932864
 143529500  0.413907968 -0.194759808
 147029000 -0.095967304 -0.177247360
 150528500  0.147765024  0.288969280
 154028000  0.443340480 -0.043504360
 157527500  0.066666268 -0.265174352
 161027000 -0.000130710  0.200493936
 164526500  0.410582976  0.100014864
 168026000  0.275235488 -0.282672480
 171525500 -0.137777856 -0.067180208
 175025000  0.208984992  0.252032784
 178524500  0.393870208 -0.112605544
 182024000  0.006690695 -0.258879744
 185523500 -0.047322960  0.185386752
 189023000  0.339178560  0.090208088
 192522500  0.144163232 -0.222559728
 196022000 -0.109147144  0.097661560
 199521500  0.270875584  0.216990624
 203021000  0.304673472 -0.134631552
 206520500 -0.058995056 -0.130345104
 210020000  0.024658892  0.243866720
 213519500  0.310023776  0.064790396
 217019000  0.073221912 -0.112986136
 220518500 -0.031359882  0.180646272
 224018000  0.279933536  0.194401232
 227517500  0.184211216 -0.064586200
 231017000  0.002680282  0.127839192
 234516500  0.240005392  0.235396992
 238016000  0.291032128  0.007073212
 241515500  0.069656656 -0.002126158
 245015000  0.107881832  0.230838560
 248514500  0.326038176  0.117660312
 252014000  0.110887216 -0.011584770
 255513500  0.092251528  0.251511360
 259013000  0.344640224  0.232555360
 262512500  0.293006720  0.015178915
 266012000  0.145466672  0.145544944
 269511500  0.328171040  0.237474368
 273011000  0.419551168  0.044907716
 276510500  0.233712576 -0.045141976
 280010000  0.164899872  0.126357424
 283509500  0.320932480  0.189044944
 287009000  0.380313440  0.025101346
 290508500  0.188501664  0.034494132
 294008000  0.295479456  0.222463744
 297507500  0.477269280  0.092154728
 301007000  0.335722464 -0.085418504
 304506500  0.219532592  0.100781408
 308006000  0.424680352  0.135113488
 311505500  0.446816928 -0.050215060
 315005000  0.302541728 -0.041012708
 318504500  0.380285696  0.043051304
 322004000  0.449772224 -0.063126804
 325503500  0.359000960 -0.154865488
 329003000  1.000307202  0.000000000
 332502500  0.995072640  0.000000000
 336002000  0.992367424  0.000000000
 339501500  0.987806528  0.000000000
 343001000  0.982801216  0.000000000
 346500500  0.986775104  0.000000000
 350000000  0.996203456  0.000000000
