!File created by NanoVNA
# Hz S RI R 50
     50000  1.000835896 -0.018675888
   3549500 -0.104740712 -0.842159680
   7049000 -0.200855648  0.653060672
  10548500  0.797204288  0.240077248
  14048000  0.365893088 -0.677664960
  17547500 -0.421803968  0.244096448
  21047000  0.575667264  0.439806304
  24546500  0.655282432 -0.396564064
  28046000 -0.376994016 -0.182064912
  31545500  0.347764768  0.453307136
  35045000  0.713190720 -0.147005552
  38544500 -0.107010936 -0.397282336
  42044000  0.034911124  0.125403168
  45543500  0.606328256  0.139653040
  49043000  0.313714880 -0.520765472
  52542500 -0.029130240  0.110717952
  56042000  0.377011168  0.236770992
  59541500  0.514675392 -0.295495168
  63041000 -0.108443560 -0.281114144
  66540500  0.123835008  0.168485488
  70040000  0.410412736 -0.042009484
  73539500  0.129758016 -0.392475104
  77039000 -0.064000240  0.203111744
  80538500  0.361476512  0.097096544
  84038000  0.217990288 -0.222217344
  87537500  0.137884400 -0.031489856
  91037000  0.013985327 -0.059030096
  94536500  0.326187328  0.194422160
  98036000  0.342798400 -0.303043840
 101535500  0.206561600  0.000000000
 105035000  0.212774080  0.000000000
 108534500  0.221146144  0.000000000
 112034000  0.221166608  0.000000000
 115533500  0.221106272  0.000000000
 119033000  0.222620208  0.000000000
 122532500  0.216288112  0.000000000
 126032000  0.218652304  0.000000000
 129531500  0.221292624  0.000000000
 133031000  0.216431136  0.000000000
 136530500  0.217212272  0.000000000
 140030000  0.213560560  0.000000000
 143529500  0.207774992  0.000000000
 147029000  0.204146416  0.000000000
 150528500  0.202476464  0.000000000
 154028000  0.209629840  0.000000000
 157527500  0.216234320  0.000000000
 161027000  0.220019024  0.000000000
 164526500  0.215918176  0.000000000
 168026000  0.208004208  0.000000000
 171525500  0.212280176  0.000000000
 175025000  0.213224160  0.000000000
 178524500  0.211455984  0.000000000
 182024000  0.213925280  0.000000000
 185523500  0.212578128  0.000000000
 189023000  0.216094432  0.000000000
 192522500  0.215617408  0.000000000
 196022000  0.211654448  0.000000000
 199521500  0.213203184  0.000000000
 203021000  0.208936992  0.000000000
 206520500  0.209939264  0.000000000
 210020000  0.212748368  0.000000000
 213519500  0.207461792  0.000000000
 217019000  0.208923120  0.000000000
 220518500  0.210024128  0.000000000
 224018000  0.206995040  0.000000000
 227517500  0.212251840  0.000000000
 231017000  0.225665520  0.000000000
 234516500  0.224939760  0.000000000
 238016000  0.207360480  0.000000000
 241515500  0.208814752  0.000000000
 245015000  0.208741184  0.000000000
 248514500  0.199123616  0.000000000
 252014000  0.210754112  0.000000000
 255513500  0.195359552  0.000000000
 259013000  0.211106944  0.000000000
 262512500  0.365151712  0.000000000
 266012000  0.528697024  0.000000000
 269511500  0.591506240  0.000000000
 273011000  0.617127552  0.000000000
 276510500  0.652848960  0.000000000
 280010000  0.713802368  0.000000000
 283509500  0.781649920  0.000000000
 287009000  0.832831680  0.000000000
 290508500  0.880931072  0.000000000
 294008000  0.910187072  0.000000000
 297507500  0.910687296  0.000000000
 301007000  0.908198016  0.000000000
 304506500  0.911879360  0.000000000
 308006000  0.921128448  0.000000000
 311505500  0.937966656  0.000000000
 315005000  0.960522496  0.000000000
 318504500  0.978446016  0.000000000
 322004000  0.987813952  0.000000000
 325503500  0.997095360  0.000000000
 329003000  0.999984640  0.000000000
 332502500  0.994782656  0.000000000
 336002000  0.992136832  0.000000000
 339501500  0.987579136  0.000000000
 343001000  0.982529792  0.000000000
 346500500  0.986453696  0.000000000
 350000000  0.995761152  0.000000000
