!File created by NanoVNA
# Hz S RI R 50
     50000  1.000437498 -0.018853098
   3549500 -0.104588576 -0.842127168
   7049000 -0.200888336  0.653172736
  10548500  0.797138624  0.240205664
  14048000  0.365984544 -0.677865088
  17547500 -0.421890624  0.244108624
  21047000  0.575664000  0.439855680
  24546500  0.655309312 -0.396708704
  28046000 -0.377048448 -0.181937696
  31545500  0.347784736  0.452276352
  35045000  0.713783296 -0.146123776
  38544500 -0.107230928 -0.400547776
  42044000  0.042995620  0.121578784
  45543500  0.605869376  0.141361840
  49043000  0.315994304 -0.521359264
  52542500 -0.035467104  0.118754256
  56042000  0.374354848  0.235531312
  59541500  0.515368992 -0.294716224
  63041000 -0.109440576 -0.281746592
  66540500  0.124060424  0.168542512
  70040000  0.410147648 -0.042014208
  73539500  0.131134392 -0.391541824
  77039000 -0.069573128  0.206829424
  80538500  0.359295072  0.094803368
  84038000  0.220961360 -0.222350016
  87537500  0.135376352 -0.029871664
  91037000  0.016203949 -0.060562696
  94536500  0.323942656  0.195047984
  98036000  0.344700096 -0.302139200
 101535500 -0.186229296 -0.038637908
 105035000  0.312408640  0.203322992
 108534500  0.322469856 -0.197439872
 112034000 -0.078338184 -0.204467888
 115533500  0.074980376  0.314759200
 119033000  0.487301440  0.013607767
 122532500  0.132109760 -0.360554368
 126032000 -0.131832512  0.169346080
 129531500  0.409951584  0.141975344
 133031000  0.188989024 -0.298494592
 136530500 -0.140748976  0.106102712
 140030000  0.345824192  0.265325072
 143529500  0.413713600 -0.194853920
 147029000 -0.096421952 -0.176799200
 150528500  0.147966672  0.289327584
 154028000  0.443266176 -0.043484132
 157527500  0.066343820 -0.264962144
 161027000 -0.000138617  0.201125472
 164526500  0.410644928  0.100108472
 168026000  0.274848096 -0.282608512
 171525500 -0.138175008 -0.066481812
 175025000  0.209200496  0.252456160
 178524500  0.393792352 -0.112496240
 182024000  0.005150425 -0.258260400
 185523500 -0.047310636  0.186278848
 189023000  0.339207168  0.090512080
 192522500  0.143789952 -0.222210656
 196022000 -0.109420552  0.098710024
 199521500  0.271090368  0.217446896
 203021000  0.304440192 -0.134239120
 206520500 -0.059540956 -0.129555672
 210020000  0.024852590  0.244831632
 213519500  0.309927744  0.065088740
 217019000  0.072709632 -0.112262632
 220518500 -0.031353832  0.181707120
 224018000  0.279939168  0.194873296
 227517500  0.184024416 -0.063799700
 231017000  0.002570509  0.128860232
 234516500  0.240081392  0.236424976
 238016000  0.290897184  0.007792504
 241515500  0.209104272  0.000000000
 245015000  0.208970656  0.000000000
 248514500  0.199301776  0.000000000
 252014000  0.210915392  0.000000000
 255513500  0.195520992  0.000000000
 259013000  0.211289552  0.000000000
 262512500  0.365367392  0.000000000
 266012000  0.528926848  0.000000000
 269511500  0.591743872  0.000000000
 273011000  0.617359872  0.000000000
 276510500  0.653024640  0.000000000
 280010000  0.713969024  0.000000000
 283509500  0.781879488  0.000000000
 287009000  0.833023104  0.000000000
 290508500  0.881042496  0.000000000
 294008000  0.910299136  0.000000000
 297507500  0.910769600  0.000000000
 301007000  0.908219264  0.000000000
 304506500  0.911918144  0.000000000
 308006000  0.921258240  0.000000000
 311505500  0.938144320  0.000000000
 315005000  0.960666816  0.000000000
 318504500  0.978628608  0.000000000
 322004000  0.988080128  0.000000000
 325503500  0.997351232  0.000000000
 329003000  1.000203013  0.000000000
 332502500  0.994959232  0.000000000
 336002000  0.992289728  0.000000000
 339501500  0.987773312  0.000000000
 343001000  0.982747136  0.000000000
 346500500  0.986706560  0.000000000
 350000000  0.996103168  0.000000000
