!File created by NanoVNA
# Hz S RI R 50
     50000  1.000723004 -0.018879694
   3549500 -0.104688376 -0.842138496
   7049000 -0.200853248  0.652977472
  10548500  0.797107840  0.240234256
  14048000  0.366180160 -0.677809088
  17547500 -0.421848896  0.244219216
  21047000  0.575691584  0.439742848
  24546500  0.655288128 -0.396154176
  28046000 -0.376968736 -0.182659232
  31545500  0.350886688  0.454384960
  35045000  0.712896832 -0.144812816
  38544500 -0.104935416 -0.401369152
  42044000  0.045101000  0.129100200
  45543500  0.602900224  0.140450768
  49043000  0.317716256 -0.519690528
  52542500 -0.040200288  0.118109400
  56042000  0.374239840  0.234432112
  59541500  0.515165568 -0.294131840
  63041000 -0.109139416 -0.283349344
  66540500  0.125141160  0.169576448
  70040000  0.410275968 -0.043485444
  73539500  0.130493848 -0.389829888
  77039000 -0.069570256  0.202096240
  80538500  0.363234656  0.094864216
  84038000  0.216979632 -0.220969104
  87537500  0.139430128 -0.032246430
  91037000  0.013809848 -0.056615908
  94536500  0.325007680  0.193384304
  98036000  0.343413792 -0.300831584
 101535500 -0.185936816 -0.040126592
 105035000  0.310638272  0.203789888
 108534500  0.325079520 -0.196622848
 112034000 -0.081326664 -0.202581632
 115533500  0.075969288  0.314148896
 119033000  0.487054592  0.013580281
 122532500  0.132153808 -0.360336992
 126032000 -0.131396400  0.169491504
 129531500  0.409853472  0.142036480
 133031000  0.189656736 -0.298059552
 136530500 -0.141374256  0.107365272
 140030000  0.346170144  0.264699168
 143529500  0.413273984 -0.194936432
 147029000 -0.096235056 -0.176073360
 150528500  0.148225856  0.289080192
 154028000  0.443254816 -0.043274416
 157527500  0.066472620 -0.264647936
 161027000  0.000156164  0.201141872
 164526500  0.410887584  0.099684584
 168026000  0.274829024 -0.281578464
 171525500 -0.137695792 -0.066665672
 175025000  0.209563120  0.252389312
 178524500  0.393738496 -0.112537928
 182024000  0.005280268 -0.257449680
 185523500 -0.046934480  0.186236320
 189023000  0.339265376  0.090332432
 192522500  0.143967088 -0.222132944
 196022000 -0.109139528  0.098595496
 199521500  0.271396000  0.217286960
 203021000  0.304324000 -0.134495744
 206520500 -0.059380484 -0.129421264
 210020000  0.025065114  0.244541072
 213519500  0.309802272  0.064855656
 217019000  0.072578152 -0.111998984
 220518500 -0.031002836  0.181336928
 224018000  0.279587456  0.194955632
 227517500  0.183833968 -0.063696564
 231017000  0.002618951  0.128849792
 234516500  0.240063600  0.236339088
 238016000  0.290670688  0.007590140
 241515500  0.069347440 -0.000838787
 245015000  0.107938784  0.232222912
 248514500  0.326423296  0.118692952
 252014000  0.110767704 -0.010577109
 255513500  0.092352704  0.253079360
 259013000  0.210698240  0.000000000
 262512500  0.364693824  0.000000000
 266012000  0.528257376  0.000000000
 269511500  0.591139904  0.000000000
 273011000  0.616807552  0.000000000
 276510500  0.652546368  0.000000000
 280010000  0.713487680  0.000000000
 283509500  0.781367680  0.000000000
 287009000  0.832585152  0.000000000
 290508500  0.880638336  0.000000000
 294008000  0.909858112  0.000000000
 297507500  0.910325312  0.000000000
 301007000  0.907746048  0.000000000
 304506500  0.911349632  0.000000000
 308006000  0.920618816  0.000000000
 311505500  0.937541312  0.000000000
 315005000  0.960130496  0.000000000
 318504500  0.978112640  0.000000000
 322004000  0.987610240  0.000000000
 325503500  0.996917184  0.000000000
 329003000  0.999724928  0.000000000
 332502500  0.994434880  0.000000000
 336002000  0.991718528  0.000000000
 339501500  0.987134208  0.000000000
 343001000  0.982089536  0.000000000
 346500500  0.986036352  0.000000000
 350000000  0.995377344  0.000000000
