!File created by NanoVNA
# Hz S RI R 50
     50000  1.000773430 -0.018795178
   3549500 -0.104675984 -0.842392064
   7049000 -0.201109472  0.653272000
  10548500  0.797329984  0.240146704
  14048000  0.365884288 -0.677912128
  17547500 -0.422016032  0.243831328
  21047000  0.575598016  0.439769856
  24546500  0.655314048 -0.396979648
  28046000 -0.376888832 -0.181473824
  31545500  0.344905184  0.453588768
  35045000  0.713163648 -0.148520960
  38544500 -0.107119320 -0.393733216
  42044000  0.026224754  0.130107072
  45543500  0.608435776  0.137670432
  49043000  0.308832000 -0.519616768
  52542500 -0.019989868  0.091346992
  56042000  0.381555744  0.238244400
  59541500  0.514070880 -0.297051424
  63041000 -0.107640888 -0.279509632
  66540500  0.122841104  0.167478656
  70040000  0.410719680 -0.041167896
  73539500  0.129057008 -0.393651488
  77039000 -0.062358580  0.199444272
  80538500  0.364326944  0.098023152
  84038000  0.216187648 -0.223369072
  87537500  0.142370384 -0.031281300
  91037000  0.009409568 -0.058179648
  94536500  0.327640096  0.192892576
  98036000  0.342425600 -0.303590336
 101535500 -0.183231424 -0.034221444
 105035000  0.311467872  0.198165408
 108534500  0.322810880 -0.190873072
 112034000 -0.081855152 -0.207101232
 115533500  0.075749800  0.314229312
 119033000  0.487007296  0.013168662
 122532500  0.132601696 -0.360586368
 126032000 -0.131490696  0.168338944
 129531500  0.409778560  0.141657264
 133031000  0.189754816 -0.298075648
 136530500 -0.141579744  0.105117176
 140030000  0.345786080  0.264855472
 143529500  0.413961984 -0.195210672
 147029000 -0.095792424 -0.177247840
 150528500  0.147956208  0.288452608
 154028000  0.443091040 -0.043650232
 157527500  0.067413016 -0.265103488
 161027000 -0.000163721  0.199611296
 164526500  0.410566176  0.099958968
 168026000  0.275547840 -0.282608672
 171525500 -0.137200080 -0.067953552
 175025000  0.208852240  0.251622432
 178524500  0.394134944 -0.112527304
 182024000  0.006665332 -0.257909392
 185523500 -0.047457660  0.184450032
 189023000  0.339170400  0.090126512
 192522500  0.144776704 -0.222921008
 196022000 -0.109009048  0.096570216
 199521500  0.270944064  0.216756992
 203021000  0.305101344 -0.134884272
 206520500 -0.058450684 -0.131214512
 210020000  0.024679184  0.242728496
 213519500  0.309742240  0.064499728
 217019000  0.074271904 -0.113560536
 220518500 -0.031701888  0.179128256
 224018000  0.280082144  0.194009680
 227517500  0.184295264 -0.065447064
 231017000  0.003147766  0.126613024
 234516500  0.239281488  0.234445440
 238016000  0.292023520  0.006740747
 241515500  0.069508536 -0.004176400
 245015000  0.107300480  0.230162848
 248514500  0.326457920  0.116658904
 252014000  0.110837072 -0.013096726
 255513500  0.091612688  0.250181712
 259013000  0.344204480  0.231885664
 262512500  0.293089792  0.013832431
 266012000  0.144479088  0.144189536
 269511500  0.327722784  0.236917744
 273011000  0.419346048  0.043565464
 276510500  0.232840736 -0.046079424
 280010000  0.164571696  0.125033616
 283509500  0.319856768  0.188077632
 287009000  0.379800160  0.024357946
 290508500  0.187917104  0.033363134
 294008000  0.294383648  0.221596016
 297507500  0.476444128  0.091646296
 301007000  0.335758432 -0.085538376
 304506500  0.218864896  0.100031488
 308006000  0.424114816  0.134475696
 311505500  0.446353760 -0.051047408
 315005000  0.302144640 -0.041584880
 318504500  0.379790176  0.041532712
 322004000  0.449226592 -0.063869744
 325503500  0.357266080 -0.154798816
 329003000  0.298462784 -0.077161288
 332502500  0.382015840 -0.105690240
 336002000  0.304362016 -0.214114480
 339501500  0.988139136  0.000000000
 343001000  0.983012608  0.000000000
 346500500  0.986820608  0.000000000
 350000000  0.996047360  0.000000000
