!File created by NanoVNA
# Hz S RI R 50
     50000  1.000589728 -0.018665058
   3549500 -0.104581632 -0.842246464
   7049000 -0.201054448  0.653190656
  10548500  0.797141888  0.240202176
  14048000  0.365956448 -0.677914624
  17547500 -0.421786912  0.244098816
  21047000  0.575527936  0.439922464
  24546500  0.655254784 -0.396861152
  28046000 -0.377008416 -0.181593440
  31545500  0.346006432  0.452969216
  35045000  0.713307072 -0.147714512
  38544500 -0.107290904 -0.395736800
  42044000  0.030520030  0.127247456
  45543500  0.607464960  0.138872992
  49043000  0.311222464 -0.520165568
  52542500 -0.024357668  0.100909456
  56042000  0.379554592  0.237674496
  59541500  0.514211072 -0.296501888
  63041000 -0.108260168 -0.279974272
  66540500  0.123831480  0.167927888
  70040000  0.410210848 -0.041210272
  73539500  0.129346448 -0.393469728
  77039000 -0.063245312  0.201783264
  80538500  0.362882976  0.097880696
  84038000  0.217018736 -0.223285984
  87537500  0.140811600 -0.029452260
  91037000  0.010691379 -0.059299460
  94536500  0.326586560  0.194180512
  98036000  0.342926944 -0.303737184
 101535500 -0.185798032 -0.036063424
 105035000  0.312022816  0.198521072
 108534500  0.322133888 -0.190979104
 112034000 -0.081986416 -0.207035504
 115533500  0.076118416  0.315045408
 119033000  0.487125152  0.013265503
 122532500  0.131758096 -0.360615584
 126032000 -0.131847216  0.169545472
 129531500  0.409773856  0.142045088
 133031000  0.189239056 -0.297923552
 136530500 -0.141472128  0.106268112
 140030000  0.345995648  0.265322656
 143529500  0.413528544 -0.194993328
 147029000 -0.096624344 -0.176314512
 150528500  0.148078800  0.289297376
 154028000  0.443123744 -0.043328312
 157527500  0.066564748 -0.264613872
 161027000 -0.000129191  0.201217232
 164526500  0.410651552  0.100216168
 168026000  0.274854944 -0.282294208
 171525500 -0.137872160 -0.066447116
 175025000  0.209312448  0.252526976
 178524500  0.393938560 -0.112417720
 182024000  0.006388826 -0.258201456
 185523500 -0.047179396  0.186154544
 189023000  0.339273120  0.090513656
 192522500  0.143924832 -0.222151840
 196022000 -0.109241080  0.098398696
 199521500  0.271303072  0.217432080
 203021000  0.304485952 -0.134457808
 206520500 -0.059401272 -0.129677864
 210020000  0.024986766  0.244544320
 213519500  0.309803712  0.064955248
 217019000  0.072805632 -0.112256768
 220518500 -0.031247144  0.181256448
 224018000  0.279616608  0.194878992
 227517500  0.184052992 -0.063819512
 231017000  0.002489583  0.128430560
 234516500  0.239869344  0.236505792
 238016000  0.291128192  0.007535029
 241515500  0.069069312 -0.001144395
 245015000  0.107952880  0.232095008
 248514500  0.326328544  0.118479264
 252014000  0.110531192 -0.010575195
 255513500  0.195453536  0.000000000
 259013000  0.211228608  0.000000000
 262512500  0.365263552  0.000000000
 266012000  0.528788096  0.000000000
 269511500  0.591567104  0.000000000
 273011000  0.617175616  0.000000000
 276510500  0.652893504  0.000000000
 280010000  0.713828480  0.000000000
 283509500  0.781691776  0.000000000
 287009000  0.832863488  0.000000000
 290508500  0.880927232  0.000000000
 294008000  0.910191488  0.000000000
 297507500  0.910683712  0.000000000
 301007000  0.908185728  0.000000000
 304506500  0.911903168  0.000000000
 308006000  0.921212352  0.000000000
 311505500  0.938092800  0.000000000
 315005000  0.960602816  0.000000000
 318504500  0.978457920  0.000000000
 322004000  0.987810240  0.000000000
 325503500  0.997080000  0.000000000
 329003000  0.999956032  0.000000000
 332502500  0.994755328  0.000000000
 336002000  0.992118784  0.000000000
 339501500  0.987559808  0.000000000
 343001000  0.982496128  0.000000000
 346500500  0.986405120  0.000000000
 350000000  0.995700480  0.000000000
