!File created by NanoVNA
# Hz S RI R 50
     50000  1.000995398 -0.018814826
   3549500 -0.104540928 -0.842459648
   7049000 -0.201288176  0.653196480
  10548500  0.797268416  0.240202816
  14048000  0.365983872 -0.677921152
  17547500 -0.422024512  0.243986048
  21047000  0.575481088  0.439819328
  24546500  0.655302976 -0.397077408
  28046000 -0.377017280 -0.181599520
  31545500  0.345424064  0.452637376
  35045000  0.713630080 -0.148059952
  38544500 -0.108356312 -0.396003584
  42044000  0.032108982  0.121691528
  45543500  0.608242944  0.140107008
  49043000  0.312074304 -0.521580992
  52542500 -0.023571766  0.107636536
  56042000  0.377341824  0.237651456
  59541500  0.514950336 -0.296000768
  63041000 -0.108091600 -0.280678752
  66540500  0.123022896  0.167541392
  70040000  0.410677216 -0.041281112
  73539500  0.130237136 -0.393292736
  77039000 -0.064105556  0.204821968
  80538500  0.359378720  0.097038016
  84038000  0.220825184 -0.223004736
  87537500  0.136657936 -0.030394624
  91037000  0.014473111 -0.060904820
  94536500  0.325303968  0.194405104
  98036000  0.343970656 -0.303284768
 101535500 -0.185764096 -0.037044884
 105035000  0.312207968  0.199817440
 108534500  0.321937120 -0.193685456
 112034000 -0.079925824 -0.207449664
 115533500  0.075292784  0.314370624
 119033000  0.486926560  0.013009123
 122532500  0.132425608 -0.360604768
 126032000 -0.131577448  0.167943888
 129531500  0.409514752  0.141911552
 133031000  0.189470448 -0.298206464
 136530500 -0.140753536  0.104548224
 140030000  0.345136928  0.265093920
 143529500  0.413877024 -0.194625856
 147029000 -0.095719112 -0.177536864
 150528500  0.147455408  0.288506880
 154028000  0.443011776 -0.043200372
 157527500  0.067607992 -0.264830672
 161027000 -0.000460129  0.199548096
 164526500  0.410262752  0.100637856
 168026000  0.276243008 -0.282253024
 171525500 -0.137080944 -0.067941240
 175025000  0.208783408  0.252061760
 178524500  0.394755808 -0.111836512
 182024000  0.007280932 -0.258714944
 185523500 -0.047281032  0.184392384
 189023000  0.339575200  0.090695816
 192522500  0.145904192 -0.222852944
 196022000 -0.108513752  0.096265464
 199521500  0.271324352  0.217001648
 203021000  0.306631232 -0.134740144
 206520500 -0.057231572 -0.132086736
 210020000  0.025143328  0.242291744
 213519500  0.311064736  0.064321696
 217019000  0.075369352 -0.114640760
 220518500 -0.031109444  0.178090592
 224018000  0.280777440  0.193491136
 227517500  0.185664544 -0.066727244
 231017000  0.003509738  0.124823352
 234516500  0.239534480  0.233602256
 238016000  0.293317024  0.005304556
 241515500  0.069569920 -0.006626546
 245015000  0.106998800  0.228722144
 248514500  0.327080800  0.115094512
 252014000  0.110360704 -0.015659845
 255513500  0.090623944  0.248742896
 259013000  0.344013344  0.230481168
 262512500  0.292653888  0.011481860
 266012000  0.143004976  0.142683856
 269511500  0.326952576  0.235777552
 273011000  0.418769216  0.041697400
 276510500  0.230971216 -0.048097332
 280010000  0.162511392  0.124120136
 283509500  0.318376256  0.187383744
 287009000  0.378241856  0.023240708
 290508500  0.185541120  0.032877568
 294008000  0.292840224  0.221719152
 297507500  0.475428192  0.091192960
 301007000  0.333398912 -0.086398000
 304506500  0.216742336  0.100737104
 308006000  0.422810016  0.135109552
 311505500  0.444841888 -0.051314112
 315005000  0.300284288 -0.040956988
 318504500  0.378746976  0.042137276
 322004000  0.448055360 -0.063340040
 325503500  0.356211584 -0.155627888
 329003000  0.297158624 -0.076290656
 332502500  0.381478432 -0.105546176
 336002000  0.303315840 -0.213772688
 339501500  0.988276096  0.000000000
 343001000  0.983239232  0.000000000
 346500500  0.987174528  0.000000000
 350000000  0.996504704  0.000000000
