# HZ S RI R 50
50000 -0.999681152 0.004774982
20049500 -0.948056192 0.27838112
40049000 -0.831775168 0.525677728
60048500 -0.653797632 0.731204672
80048000 -0.42923264 0.879546176
100047500 -0.172170544 0.961605184
120047000 0.09379264 0.97644928
140046500 0.353238656 0.91427232
160046000 0.589184896 0.783033472
180045500 0.781089984 0.591508032
200045000 0.914946048 0.349995296
220044500 0.977218304 0.082094144
240044000 0.961447232 -0.191366176
260043500 0.869465472 -0.449927872
280043000 0.70669728 -0.673894528
300042500 0.494178112 -0.842472832
320042000 0.232262752 -0.946391744
340041500 -0.046045656 -0.9744112
360041000 -0.319557088 -0.916423168
380040500 -0.566139072 -0.799033152
400040000 -0.76624416 -0.62192224
420039500 -0.909531264 -0.393862592
440039000 -0.979918656 -0.136922128
460038500 -0.973381376 0.129088384
480038000 -0.895787584 0.379739168
500037500 -0.752065536 0.599230464
520037000 -0.556112384 0.768774272
540036500 -0.323369056 0.882991744
560036000 -0.073624968 0.929884864
580035500 0.179796896 0.915461056
600035000 0.4182912 0.841164864
620034500 0.62442368 0.707744128
640034000 0.785873856 0.527047808
660033500 0.898324864 0.310424736
680033000 0.945014336 0.069984128
700032500 0.926505536 -0.184134032
720032000 0.83894208 -0.423556672
740031500 0.683149824 -0.647096896
760031000 0.4642344 -0.8172544
780030500 0.197580784 -0.920086592
800030000 -0.099523832 -0.944940928
820029500 -0.388690048 -0.87327488
840029000 -0.640389824 -0.720626816
860028500 -0.834870528 -0.499972224
880028000 -0.9481008 -0.242022928
900027500 -0.941000704 -0.020612938
920027000 -0.896175296 0.254471504
940026500 -0.777913664 0.486154912
960026000 -0.609444672 0.669778752
980025500 -0.420250944 0.791088
1000025000 -0.212204672 0.855762368
1020024500 -0.00778664 0.8708704
1040024000 0.204413936 0.8332608
1060023500 0.392951104 0.739307136
1080023000 0.5560368 0.604200512
1100022500 0.704172032 0.414828832
1120022000 0.7972608 0.18762688
1140021500 0.809515776 -0.07561736
1160021000 0.753505664 -0.349460992
1180020500 0.605224448 -0.609453952
1200020000 0.363531872 -0.792487616
1220019500 0.078266736 -0.878347008
1240019000 -0.196635456 -0.849038464
1260018500 -0.429462144 -0.752976768
1280018000 -0.610065856 -0.59115424
1300017500 -0.730658944 -0.399951648
1320017000 -0.78292768 -0.176629936
1340016500 -0.764829696 0.028053734
1360016000 -0.690754816 0.220890704
1380015500 -0.557541952 0.38193808
1400015000 -0.398426496 0.489733344
1420014500 -0.209626416 0.53320128
1440014000 -0.007815214 0.558146496
1460013500 0.204701152 0.504962496
1480013000 0.420138432 0.41730224
1500012500 1.053553104 0.832281856
1520012000 1.534226784 0.570120576
1540011500 1.8578048 -0.182628
1560011000 1.898733504 -1.164884336
1580010500 1.461244352 -1.836302144
1600010000 0.74724992 -1.988179776
1620009500 0.00143795 -2.15994168
1640009000 -0.524329888 -1.934250624
1660008500 -0.827278464 -1.756496768
1680008000 -1.038743256 -1.5180416
1700007500 -1.208573584 -1.218202944
1720007000 -1.34075296 -1.001755357
1740006500 -1.368067488 -0.719499968
1760006000 -1.338259456 -0.489320896
1780005500 -1.210924512 -0.214188864
1800005000 -1.228007792 0.053277256
1820004500 -0.92494112 0.0764914
1840004000 -0.615479744 0.225554784
1860003500 0.075355632 -0.061136568
1880003000 0.13591312 -0.76761376
1900002500 -0.332023584 -1.446701536
1920002000 -0.776968896 -1.167820448
1940001500 -1.328654752 -1.158967856
1960001000 -1.389372096 -0.698111168
1980000500 -1.706473856 -0.812793664
2000000000 -1.665696256 -0.45987376
