# HZ S RI R 50
50000 0.997818176 -0.004623674
12049500 -0.090209312 -0.968317248
24049000 -0.123969248 0.902636736
36048500 0.917601536 -0.198560304
48048000 -0.1571824 -0.882703744
60047500 -0.152056864 0.78740608
72047000 0.841111232 -0.342830432
84046500 -0.083643752 -0.909776
96046000 -0.761395008 0.27031664
108045500 0.782400832 -0.211776608
120045000 -0.333144192 -0.76414176
132044500 -0.504005856 0.43076688
144044000 0.560830144 -0.37566368
156043500 -0.47943056 -0.623938432
168043000 -0.575121152 0.365463584
180042500 0.532107776 -0.153378816
192042000 -0.531156672 -0.544753024
204041500 -0.559361152 0.418390272
216041000 0.341675552 -0.201099776
228040500 -0.630483328 -0.186595456
240040000 -0.356966272 0.452482976
252039500 -0.001654964 -0.034303928
264039000 -0.503961728 0.264826
276038500 -0.016402092 0.628739648
288038000 0.362458208 0.03041629
300037500 -0.389660416 -0.021749746
312037000 -0.167569552 0.589708416
324036500 0.391059776 0.432982464
336036000 0.180901536 -0.02772336
348035500 0.238680256 0.264209632
360035000 0.290972896 -0.222990016
372034500 -0.361744672 0.059888804
384034000 0.196598224 0.605092736
396033500 0.71884256 0.053784392
408033000 0.201001488 -0.618794304
420032500 -0.444830144 0.15588424
432032000 0.381599776 0.201206288
444031500 -0.006092551 -0.053354608
456031000 0.38474656 0.26346264
468030500 0.553809088 -0.360616576
480030000 -0.11434492 -0.645791552
492029500 -0.540256 0.154702144
504029000 0.492044704 0.30783184
516028500 0.353366656 -0.616587008
528028000 -0.440516544 -0.512993568
540027500 -0.099930064 0.227988896
552027000 -0.234246592 -0.432095072
564026500 -0.53042304 0.21830048
576026000 0.217146208 0.382235744
588025500 0.035121612 -0.412139104
600025000 -0.535697824 0.0463882
612024500 0.056746376 0.465239232
624024000 0.266447248 -0.349327872
636023500 -0.560636224 -0.126997632
648023000 -0.077341824 0.514259232
660022500 0.228496448 -0.249364512
672022000 -0.555365376 -0.042321124
684021500 -0.190362528 0.4505976
696021000 -0.135209184 0.05333156
708020500 -0.309945152 0.511218144
720020000 0.274531424 0.6270688
732019500 0.59581984 -0.003114118
744019000 -0.338300992 -0.239589872
756018500 -0.079494792 0.675302272
768018000 0.605629184 0.455833792
780017500 0.518858304 -0.164775952
792017000 0.406382784 -0.128766208
804016500 0.146498864 -0.509041184
816016000 -0.43175024 -0.109475968
828015500 0.081037088 0.5081904
840015000 0.640487552 0.029191072
852014500 0.270294144 -0.546808768
864014000 -0.319258784 -0.26006088
876013500 -0.080181928 0.108114088
888013000 0.02960435 0.168565712
900012500 0.45607888 0.058139628
912012000 0.245295024 -0.542899008
924011500 -0.382267232 -0.462450976
936011000 -0.484186144 0.144407104
948010500 0.071422048 0.11637636
960010000 -0.223074336 -0.156690928
972009500 -0.207908608 0.024911424
984009000 -0.377954944 -0.081694712
996008500 -0.485834016 0.293398624
1008008000 -0.16887952 0.558307328
1020007500 0.234958016 0.317719648
1032007000 -0.150163056 0.075056304
1044006500 0.008557593 0.46506496
1056006000 0.332985472 0.176386672
1068005500 -0.055117632 0.070331992
1080005000 0.134773776 0.32330336
1092004500 0.243696048 0.046719492
1104004000 -0.052914708 0.061695864
1116003500 0.235758624 0.26900784
1128003000 0.333822272 -0.11532048
1140002500 -0.1355116 0.034017892
1152002000 0.242517808 0.42062672
1164001500 0.64049856 0.13581688
1176001000 0.513564416 -0.308352864
1188000500 0.219686144 -0.140523632
1200000000 0.322589408 -0.210609536
