# HZ S RI R 50
50000 1.002141595 -0.006888807
12049500 -0.092574376 -0.97040192
24049000 -0.120518104 0.905300416
36048500 0.918470784 -0.2021304
48048000 -0.163180912 -0.880116032
60047500 -0.141297472 0.789141632
72047000 0.84167904 -0.349709536
84046500 -0.09735268 -0.911112576
96046000 -0.738150528 0.296810624
108045500 0.764613184 -0.247746576
120045000 -0.362809856 -0.734525696
132044500 -0.411394592 0.432385216
144044000 0.471656928 -0.4073168
156043500 -0.48022592 -0.5541344
168043000 -0.46659904 0.334095392
180042500 0.37158256 -0.184947952
192042000 -0.477161376 -0.446732704
204041500 -0.476317632 0.318891392
216041000 0.191334032 -0.139181344
228040500 -0.56531456 -0.130089968
240040000 -0.309346048 0.351888256
252039500 -0.12620072 0.024435408
264039000 -0.436904416 0.305976896
276038500 0.015612625 0.574191808
288038000 0.278178528 0.017205026
300037500 -0.338741696 0.046834976
312037000 -0.129818304 0.531291424
324036500 0.315792544 0.40637408
336036000 0.215510192 0.073044584
348035500 0.283658912 0.196114224
360035000 0.227080672 -0.249348976
372034500 -0.365408 0.135403056
384034000 0.248728128 0.580350976
396033500 0.686401984 0.008183461
408033000 0.160901744 -0.550639552
420032500 -0.312305408 0.137373216
432032000 0.276400832 0.124612232
444031500 0.020013238 0.079100744
456031000 0.441978208 0.18416104
468030500 0.50152224 -0.38145728
480030000 -0.11814204 -0.604707584
492029500 -0.48876816 0.131081568
504029000 0.44182736 0.2762072
516028500 0.344785696 -0.570421248
528028000 -0.389251072 -0.52188224
540027500 -0.193328992 0.193451744
552027000 -0.200571536 -0.392409184
564026500 -0.51724784 0.196137408
576026000 0.191528352 0.374602208
588025500 0.037690944 -0.385743072
600025000 -0.509967552 0.04861072
612024500 0.059210768 0.444513024
624024000 0.255783168 -0.331924768
636023500 -0.552243968 -0.118581248
648023000 -0.068743568 0.521319136
660022500 0.241565952 -0.26958736
672022000 -0.555646912 -0.054864116
684021500 -0.200895184 0.435608992
696021000 -0.14940248 0.062995276
708020500 -0.298464512 0.519822048
720020000 0.282723648 0.619310592
732019500 0.576959168 -0.008743392
744019000 -0.34482576 -0.213280992
756018500 -0.06942252 0.675776128
768018000 0.607429184 0.44176944
780017500 0.504866432 -0.14621712
792017000 0.425117568 -0.14300088
804016500 0.12799992 -0.509599808
816016000 -0.421894624 -0.097585368
828015500 0.081829464 0.505325568
840015000 0.637463552 0.03659344
852014500 0.273455104 -0.559249408
864014000 -0.337887616 -0.248659664
876013500 -0.0315062 0.093949616
888013000 0.000174498 0.156960736
900012500 0.465406976 0.08340432
912012000 0.264839088 -0.551961344
924011500 -0.37718832 -0.495112704
936011000 -0.502020544 0.131806704
948010500 0.095165856 0.103693704
960010000 -0.231678512 -0.170861568
972009500 -0.207895664 0.026736754
984009000 -0.383232448 -0.11216708
996008500 -0.511387872 0.28950848
1008008000 -0.175109184 0.561086784
1020007500 0.22606624 0.351779776
1032007000 -0.120201504 0.063993848
1044006500 0.005266962 0.45324848
1056006000 0.321711296 0.18967016
1068005500 -0.023382208 0.102934224
1080005000 0.184287984 0.3252336
1092004500 0.251984656 0.02974921
1104004000 -0.068600408 0.063912644
1116003500 0.223135536 0.272615904
1128003000 0.325701888 -0.097687352
1140002500 -0.103304448 0.043445096
1152002000 0.245276864 0.40881808
1164001500 0.63324128 0.131311896
1176001000 0.496515904 -0.309633728
1188000500 0.21289352 -0.114905368
1200000000 0.338106304 -0.222824432
