# HZ S RI R 50
50000 1.000311613 -0.006649546
12049500 -0.093644672 -0.96797024
24049000 -0.01798313 0.904918464
36048500 0.8732608 -0.334282592
48048000 -0.386719584 -0.789634304
60047500 0.072860696 0.808274432
72047000 0.835962176 -0.347667552
84046500 -0.028502772 -0.90860608
96046000 -0.681107968 0.173389088
108045500 0.587764992 -0.381223232
120045000 -0.561104448 -0.475415904
132044500 -0.082292064 0.56250624
144044000 0.549521536 -0.530092768
156043500 -0.455565408 -0.703206976
168043000 -0.696955008 0.209269728
180042500 0.397634432 -0.085912504
192042000 -0.670178368 -0.189547584
204041500 0.147808608 0.578431872
216041000 0.082418464 -0.703124352
228040500 -0.795633536 -0.218380784
240040000 -0.591340544 0.49015136
252039500 -0.032687008 0.297166112
264039000 -0.183196144 0.518625984
276038500 0.510767808 0.248098096
288038000 -0.282531936 -0.5188952
300037500 -0.67586848 0.432363456
312037000 -0.015677499 0.848422976
324036500 0.609784704 0.501105856
336036000 0.437661408 -0.09565856
348035500 0.23052768 -0.299856288
360035000 -0.421715744 -0.115628256
372034500 -0.176723264 0.607947328
384034000 0.502340384 0.559221056
396033500 0.80529792 -0.095120552
408033000 0.261696048 -0.732177728
420032500 -0.663332032 -0.156899504
432032000 0.149325184 0.415804
444031500 0.10192324 0.45944768
456031000 0.766456896 0.088260912
468030500 0.53360112 -0.608320384
480030000 -0.238457344 -0.743389952
492029500 -0.74175264 0.087139256
504029000 0.296594816 0.655607552
516028500 0.635297664 -0.419059392
528028000 -0.250949984 -0.36400768
540027500 -0.096501688 -0.709340032
552027000 -0.752088448 -0.26644448
564026500 -0.605111744 0.498108
576026000 0.272068096 0.65575424
588025500 0.54130624 -0.343885152
600025000 -0.404917664 -0.456694528
612024500 -0.108296832 0.048942908
624024000 -0.610544064 0.04769056
636023500 -0.10374048 0.685709184
648023000 0.615648512 0.153742032
660022500 -0.015428651 -0.666500928
672022000 -0.774428224 -0.118016088
684021500 -0.441828992 0.517051328
696021000 -0.308823008 0.593761408
708020500 0.258548736 0.723994304
720020000 0.70088288 0.11958788
732019500 -0.068287696 -0.587520576
744019000 -0.55037536 0.38969104
756018500 0.158294224 0.765377728
768018000 0.660684736 0.412329632
780017500 0.76500928 -0.035273612
792017000 0.481140224 -0.575392384
804016500 -0.25142032 -0.636250368
816016000 -0.54715136 0.218690944
828015500 0.248515648 0.61411968
840015000 0.722855744 0.028638038
852014500 0.364390816 -0.575842432
864014000 -0.295533024 -0.515315424
876013500 -0.520643712 0.13079628
888013000 0.142807536 0.567811456
900012500 0.655925568 0.099233712
912012000 0.387148992 -0.585482752
924011500 -0.258531008 -0.643227456
936011000 -0.645565696 -0.162021904
948010500 -0.378076608 0.31921008
960010000 0.077020936 0.35409344
972009500 0.17764664 -0.340724544
984009000 -0.49900608 -0.327872032
996008500 -0.645264256 0.176224576
1008008000 -0.406705664 0.536222336
1020007500 -0.028441546 0.643825536
1032007000 0.31106848 0.343288672
1044006500 0.222554496 0.159524112
1056006000 0.029862704 -0.09480324
1068005500 -0.259234096 0.214406704
1080005000 0.030548132 0.452948672
1092004500 0.339798688 0.312376352
1104004000 0.353191136 -0.141430896
1116003500 0.114715512 -0.12293244
1128003000 -0.154278256 -0.045484008
1140002500 -0.014600197 0.446284416
1152002000 0.493188416 0.425337728
1164001500 0.77025472 0.020034996
1176001000 0.564591872 -0.496262144
1188000500 -0.00809316 -0.345820352
1200000000 0.029073462 -0.030251984
