!File created by NanoVNA
# Hz S RI R 50
     50000  1.001026511 -0.019993128
   3459500 -0.124418080 -0.863572608
   6869000 -0.161587232  0.686076544
  10278500  0.815628544  0.183965728
  13688000  0.274530336 -0.704594496
  17097500 -0.320490592  0.381595712
  20507000  0.599668480  0.240659376
  23916500  0.702469376 -0.280855008
  27326000 -0.377976096 -0.300167168
  30735500  0.364879904  0.456777600
  34145000  0.485976512 -0.269475936
  37554500  0.342906656 -0.404237184
  40964000 -0.260796720  0.264640272
  44373500  0.606556352  0.120792616
  47783000  0.248637472 -0.542162176
  51192500 -0.139856992  0.168671088
  54602000  0.285284192  0.019437844
  58011500  0.392879456 -0.009543099
  61421000  0.128990560 -0.418151680
  64830500 -0.166822352  0.220677856
  68240000  0.531441376  0.083235520
  71649500  0.162570576 -0.478276384
  75059000 -0.266122160  0.104022648
  78468500  0.320493952  0.266370304
  81878000  0.386798368 -0.310964736
  85287500 -0.268065744 -0.166208096
  88697000  0.126921536  0.412114208
  92106500  0.495638784 -0.062761208
  95516000  0.014340398 -0.328927616
  98925500 -0.129980344  0.260929280
 102335000  0.442924096  0.207428288
 105744500  0.198963168 -0.292636128
 109154000 -0.097969136  0.205812128
 112563500  0.413196512  0.271983136
 115973000  0.470489472 -0.170364432
 119382500 -0.020629764 -0.201721712
 122792000  0.191299216  0.275876384
 126201500  0.513588672 -0.061646884
 129611000  0.114470384 -0.320634400
 133020500  0.098137784  0.146305952
 136430000  0.405318784 -0.041243184
 139839500  0.247213840 -0.319842688
 143249000 -0.129502136 -0.106001016
 146658500  0.240973008  0.148347248
 150068000  0.284236352 -0.223110448
 153477500 -0.075577488 -0.172031680
 156887000  0.035254860  0.095767960
 160296500  0.226178064  0.000873985
 163706000  0.010157913 -0.132171824
 167115500 -0.054301528  0.160006928
 170525000  0.207091456  0.185167024
 173934500  0.211466352  0.048311728
 177344000  0.136713936  0.060684712
 180753500  0.184460224  0.199926368
 184163000  0.412842944  0.106313720
 187572500  0.307225696 -0.103316856
 190982000  0.190818528 -0.003666425
 194391500  0.314746272  0.038697912
 197801000  0.347372000 -0.148599760
 201210500  0.107065048 -0.168416048
 204620000  0.136503008  0.077500072
 208029500  0.387987168 -0.034106440
 211439000  0.163636176 -0.261982800
 214848500  0.046490364  0.010937788
 218258000  0.305424096  0.015083428
 221667500  0.210897488 -0.256741792
 225077000 -0.041362548 -0.053865508
 228486500  0.201516160  0.099403584
 231896000  0.274849280 -0.143897360
 235305500 -0.006945864 -0.146667920
 238715000  0.089600200  0.141205808
 242124500  0.326639936 -0.003798463
 245534000  0.168398048 -0.216697104
 248943500  0.002674889 -0.011899902
 252353000  0.238663696  0.023669828
 255762500  0.164482048 -0.212722816
 259172000 -0.100856424 -0.085607720
 262581500  0.064051716  0.169793904
 265991000  0.222550160 -0.020560930
 269400500  0.002262693 -0.055224428
 272810000  0.063277288  0.198240560
 276219500  0.312306720  0.083989392
 279629000 -0.006663795 -0.061834244
 283038500  0.043713980 -0.027017518
 286448000  0.032122586  0.020001024
 289857500 -0.002247019  0.022217252
 293267000 -0.007875150  0.000331178
 296676500  0.007152234 -0.003919235
 300086000  0.011624489  0.009181970
 303495500  0.000033053  0.017430228
 306905000 -0.012243895  0.010017350
 310314500 -0.010147253 -0.002384868
 313724000 -0.001701862 -0.002915797
 317133500 -0.002490888  0.001123320
 320543000 -0.004634880 -0.002193666
 323952500 -0.000872287 -0.004162265
 327362000 -0.000161104 -0.002069296
 330771500 -0.001372556 -0.004578104
 334181000  0.003998423 -0.007794708
 337590500  0.010733243 -0.002723993
 341000000  0.008950615  0.005624341
