!File created by NanoVNA
# Hz S RI R 50
     50000  1.001491427 -0.021519544
   3459500 -0.285660672 -0.801373696
   6869000  0.076123272  0.737010176
  10278500  0.845801152 -0.086041888
  13688000 -0.214188064 -0.636009728
  17097500  0.077725056  0.634013568
  20507000  0.790342336 -0.042010004
  23916500 -0.068165424 -0.616357440
  27326000  0.043450476  0.544761536
  30735500  0.740107072 -0.047016160
  34145000 -0.002802899 -0.598594880
  37554500 -0.002745478  0.471369696
  40964000  0.688625280 -0.061268796
  44373500  0.017413664 -0.582660288
  47783000 -0.096670400  0.407542592
  51192500  0.631340864 -0.021309576
  54602000  0.019614014 -0.532675616
  58011500 -0.101044336  0.381482496
  61421000  0.595240256 -0.021760838
  64830500  0.022771268 -0.500883520
  68240000 -0.161545056  0.332285760
  71649500  0.548790016  0.021058756
  75059000  0.001914516 -0.442752352
  78468500 -0.172186736  0.325749056
  81878000  0.523198656  0.094346448
  85287500  0.040058112 -0.393665312
  88697000 -0.181774912  0.297505440
  92106500  0.492836320  0.211421248
  95516000  0.189473376 -0.363024320
  98925500 -0.208532224  0.180485360
 102335000  0.397434080  0.308319552
 105744500  0.254860192 -0.261942800
 109154000 -0.064495788  0.252120400
 112563500  0.485361920  0.253119792
 115973000  0.398241536 -0.272381920
 119382500 -0.049044260  0.084591992
 122792000  0.458767744  0.171905744
 126201500  0.371674496 -0.308625824
 129611000 -0.050060392  0.025193962
 133020500  0.425577920  0.096938432
 136430000  0.341567040 -0.342868288
 139839500 -0.141763312 -0.137469440
 143249000  0.252148800  0.139047152
 146658500  0.258339072 -0.262639040
 150068000 -0.169243440 -0.069269488
 153477500  0.217476928  0.183863952
 156887000  0.228041680 -0.188499616
 160296500 -0.164399856 -0.047339816
 163706000  0.146331456  0.292986176
 167115500  0.280909824 -0.061454272
 170525000 -0.073156656  0.008632942
 173934500  0.189630144  0.326214240
 177344000  0.374164288 -0.010660781
 180753500  0.032251068 -0.015425120
 184163000  0.224156496  0.290000416
 187572500  0.446371744 -0.009964794
 190982000  0.110473712 -0.101939976
 194391500  0.190907024  0.204442656
 197801000  0.429976128 -0.013011093
 201210500 -0.001882090  0.003781736
 204620000 -0.003406450  0.000882915
 208029500 -0.003251767 -0.000680225
 211439000 -0.003330273 -0.002699451
 214848500 -0.001118250 -0.005391524
 218258000  0.003585594 -0.005214739
 221667500  0.006502984 -0.000449335
 225077000  0.003762981  0.004711231
 228486500 -0.001355562  0.004709311
 231896000 -0.002674624  0.001739271
 235305500 -0.002053465  0.001748745
 238715000 -0.005098169  0.001986105
 242124500 -0.007374699 -0.003291269
 245534000 -0.002593038 -0.008382886
 248943500  0.003911638 -0.006672207
 252353000  0.005957339 -0.001207330
 255762500  0.003480469  0.002793001
 259172000  0.001113791  0.003333128
 262581500 -0.000123844  0.004982659
 265991000 -0.002345191  0.004183364
 269400500  0.006669212  0.010870239
 272810000 -0.013782877  0.052340364
 276219500 -0.117442232  0.033738752
 279629000 -0.138585200 -0.140906144
 283038500  0.074375400 -0.237545824
 286448000  0.245674736 -0.049058804
 289857500  0.133800760  0.149412416
 293267000 -0.027134304  0.120584368
 296676500 -0.045056384  0.035063420
 300086000 -0.027232722  0.014237197
 303495500 -0.023596568 -0.001199042
 306905000 -0.004292228 -0.009240603
 310314500  0.003296829  0.004040011
 313724000 -0.006144318  0.007035233
 317133500 -0.007383644 -0.000762893
 320543000 -0.002121677 -0.002469302
 323952500 -0.000927195 -0.000213783
 327362000 -0.001891438 -0.000780182
 330771500 -0.000348407 -0.002352893
 334181000  0.001955986 -0.001649834
 337590500  0.002987470  0.000182705
 341000000  0.002588431  0.002385729
