!File created by NanoVNA
# Hz S RI R 50
     50000  1.001338124 -0.019666382
   3459500 -0.102370896 -0.877223424
   6869000 -0.185454144  0.693893760
  10278500  0.815616256  0.216946592
  13688000  0.341652416 -0.711399168
  17097500 -0.450484992  0.312106784
  20507000  0.629573760  0.403506240
  23916500  0.602739840 -0.482093824
  27326000 -0.137742096  0.123847560
  30735500  0.328521824  0.511126272
  34145000  0.619496640 -0.321001216
  37554500  0.431173088 -0.242897120
  40964000 -0.283228448  0.271149376
  44373500  0.637201536  0.136248816
  47783000  0.276238944 -0.544278080
  51192500 -0.350491712  0.124647408
  54602000  0.531424512  0.222425568
  58011500  0.168796960 -0.438727072
  61421000  0.351241568 -0.146829920
  64830500 -0.182249184  0.194372096
  68240000  0.383543776 -0.036984320
  71649500  0.240332080 -0.436899360
  75059000 -0.268904544  0.155881360
  78468500  0.219805792  0.060681444
  81878000  0.437216992 -0.160656496
  85287500 -0.191736368 -0.248698432
  88697000  0.048544756  0.402909760
  92106500  0.523188064 -0.006200897
  95516000  0.041048240 -0.362030688
  98925500 -0.120149216  0.199643456
 102335000  0.413082752  0.256849824
 105744500  0.249444352 -0.287893888
 109154000 -0.072641608  0.143986064
 112563500  0.385421056  0.278423488
 115973000  0.465011488 -0.129104360
 119382500  0.052187732 -0.228839440
 122792000  0.132875216  0.229687424
 126201500  0.493460608 -0.011740125
 129611000  0.202807760 -0.335164960
 133020500  0.007229783  0.083522608
 136430000  0.409272864  0.024109810
 139839500  0.281809152 -0.345005472
 143249000 -0.154039552 -0.143784992
 146658500  0.200435584  0.171381648
 150068000  0.318235136 -0.182177792
 153477500 -0.057092336 -0.252948256
 156887000 -0.010096693  0.185088816
 160296500  0.266041392 -0.023908578
 163706000  0.032371928 -0.140051472
 167115500 -0.091753680  0.115852304
 170525000  0.229732096  0.224032256
 173934500  0.246787632 -0.022251944
 177344000 -0.002997816 -0.002157776
 180753500  0.000673697 -0.004095743
 184163000  0.002694366 -0.000826373
 187572500  0.000321137  0.000521080
 190982000  0.000266183 -0.001286720
 194391500  0.002097299 -0.000213990
 197801000  0.000772749  0.001791653
 201210500 -0.000834334  0.001067155
 204620000 -0.000707172  0.000731245
 208029500 -0.001949600  0.001257968
 211439000 -0.004093053 -0.000788065
 214848500 -0.002802115 -0.004985901
 218258000  0.002636436 -0.006049705
 221667500  0.006931824 -0.001300704
 225077000  0.005124542  0.005519553
 228486500 -0.001526281  0.007439299
 231896000 -0.004915366  0.004046881
 235305500 -0.005258394  0.002490208
 238715000 -0.003557679  0.000008929
 242124500  0.005206136  0.012801698
 245534000 -0.030480366  0.046266356
 248943500 -0.116390336 -0.007783289
 252353000 -0.072906800 -0.160716000
 255762500  0.126305792 -0.165007616
 259172000  0.193155504  0.027542624
 262581500  0.060998604  0.132907984
 265991000 -0.035319648  0.082023952
 269400500 -0.046453852  0.032816388
 272810000 -0.051768976 -0.001834460
 276219500 -0.025058346 -0.042912608
 279629000  0.025455814 -0.037031868
 283038500  0.038427028  0.003553608
 286448000  0.015923835  0.026717604
 289857500 -0.008372967  0.020934842
 293267000 -0.012343713  0.000567258
 296676500  0.005009094 -0.006192505
 300086000  0.012576914  0.012440927
 303495500 -0.009366173  0.023865120
 306905000 -0.027507744  0.001833571
 310314500 -0.010882979 -0.020748634
 313724000  0.009360986 -0.011694492
 317133500  0.004442163  0.000341619
 320543000  0.000915465 -0.006364961
 323952500  0.012698261 -0.006318609
 327362000  0.014698964  0.008908188
 330771500  0.000277498  0.014934018
 334181000 -0.007819020  0.003996155
 337590500  0.000218941 -0.003574527
 341000000  0.006746616  0.003223908
