!File created by NanoVNA
# Hz S RI R 50
     50000  1.001185775 -0.019916532
   3459500  0.072378944  0.139675488
   6869000 -0.078286496  0.086407888
  10278500 -0.066293284 -0.029804562
  13688000  0.010341923 -0.039299756
  17097500  0.022990804  0.010058588
  20507000 -0.016935430  0.016118530
  23916500 -0.014821757 -0.028384180
  27326000  0.041290104 -0.022566922
  30735500  0.040883696  0.044793336
  34145000 -0.029876638  0.060295792
  37554500 -0.067231032 -0.000643386
  40964000 -0.029062820 -0.056674680
  44373500  0.034379036 -0.047823928
  47783000  0.052754240  0.009490622
  51192500  0.011334690  0.046860612
  54602000 -0.035033388  0.024527968
  58011500 -0.029047318 -0.022391624
  61421000  0.012916462 -0.026695446
  64830500  0.021233548  0.007632880
  68240000 -0.004622087  0.015760396
  71649500 -0.011048649 -0.001527515
  75059000 -0.002191048 -0.006580205
  78468500  0.002430845 -0.005719109
  81878000  0.008844698 -0.000765593
  85287500  0.003416791  0.012228707
  88697000 -0.015545181  0.007060670
  92106500 -0.011994841 -0.016738005
  95516000  0.014350773 -0.015798686
  98925500  0.015587414  0.009931180
 102335000 -0.006749077  0.011427077
 105744500 -0.006349747 -0.006306612
 109154000  0.007207765 -0.003218378
 112563500  0.002641270  0.007162432
 115973000 -0.004886941  0.003503504
 119382500 -0.004037785 -0.000420816
 122792000 -0.004795537 -0.002534380
 126201500 -0.001322817 -0.008084456
 129611000  0.007324470 -0.005428832
 133020500  0.006715803  0.003105717
 136430000  0.001685006  0.003961595
 139839500  0.001479033  0.004359371
 143249000 -0.003758270  0.007240858
 146658500 -0.011066359  0.000121847
 150068000 -0.006084005 -0.010993067
 153477500  0.006385798 -0.011367422
 156887000  0.013001073 -0.000779178
 160296500  0.006802620  0.010167637
 163706000 -0.004730468  0.008865434
 167115500 -0.006551982  0.000336860
 170525000 -0.002588474 -0.001611792
 173934500 -0.002935478 -0.001242175
 177344000 -0.002049232 -0.004462556
 180753500  0.002894354 -0.004214962
 184163000  0.003665500  0.000757611
 187572500 -0.000296486  0.001634891
 190982000 -0.000130737 -0.001366113
 194391500  0.002607795  0.000190614
 197801000  0.000390554  0.003096180
 201210500 -0.002213156  0.001283134
 204620000 -0.001084653 -0.000025678
 208029500 -0.001433854  0.001189246
 211439000 -0.003574543  0.000135551
 214848500 -0.003518592 -0.002724561
 218258000 -0.001240962 -0.005046473
 221667500  0.003985882 -0.004988157
 225077000  0.007320176  0.002622505
 228486500 -0.000902106  0.009065760
 231896000 -0.007842193  0.002422028
 235305500 -0.003380161 -0.001788643
 238715000 -0.000395508  0.000855350
 242124500  0.004258888  0.012050850
 245534000 -0.025026528  0.042783880
 248943500 -0.108746376  0.001110990
 252353000 -0.083195176 -0.148644768
 255762500  0.110319864 -0.173989808
 259172000  0.196673520  0.009753002
 262581500  0.074531760  0.126758576
 265991000 -0.020101462  0.081459280
 269400500 -0.024249900  0.047975288
 272810000 -0.053078088  0.038890032
 276219500 -0.069093984 -0.022905994
 279629000 -0.008873818 -0.067005084
 283038500  0.048224244 -0.028058596
 286448000  0.031898100  0.024921080
 289857500 -0.007811814  0.022322804
 293267000 -0.009669017 -0.004024098
 296676500  0.007921065 -0.006281392
 300086000  0.011643827  0.006555820
 303495500  0.002675241  0.013959231
 306905000 -0.008114832  0.009543881
 310314500 -0.007501137 -0.001945821
 313724000  0.002577231 -0.002460573
 317133500  0.002137055  0.006366444
 320543000 -0.006327571  0.005433258
 323952500 -0.006614569 -0.002050352
 327362000 -0.001899129 -0.003692845
 330771500 -0.001039291 -0.002179501
 334181000 -0.001649328 -0.004166719
 337590500  0.002552051 -0.007152874
 341000000  0.008939328 -0.003885444
