!File created by NanoVNA
# Hz S RI R 50
     50000  1.001224995 -0.020124790
   3459500 -0.128482384 -0.866186432
   6869000 -0.152419008  0.695450048
  10278500  0.820011712  0.172454208
  13688000  0.237511440 -0.707934976
  17097500 -0.227828080  0.412548096
  20507000  0.489562496  0.193858736
  23916500  0.684403968 -0.312179296
  27326000 -0.347276576 -0.252611968
  30735500  0.350658848  0.372892416
  34145000  0.462184832 -0.102892832
  37554500  0.287726080 -0.469182304
  40964000 -0.247165136  0.277992512
  44373500  0.576233920  0.107508960
  47783000  0.263831056 -0.450220896
  51192500 -0.156749760 -0.029458326
  54602000  0.261427488  0.224424464
  58011500  0.454723104 -0.146131040
  61421000  0.036939360 -0.373786400
  64830500 -0.101922424  0.221115376
  68240000  0.511323936  0.070357560
  71649500  0.163068464 -0.471311424
  75059000 -0.271207072  0.103635904
  78468500  0.340053632  0.251248864
  81878000  0.374654336 -0.308456256
  85287500 -0.265096128 -0.157869168
  88697000  0.134471184  0.410323936
  92106500  0.481857792 -0.074679336
  95516000  0.020505760 -0.315023200
  98925500 -0.124975616  0.257879616
 102335000  0.438310720  0.201933312
 105744500  0.187431648 -0.280121312
 109154000 -0.076871832  0.202565456
 112563500  0.395948064  0.270381376
 115973000  0.483526912 -0.162351184
 119382500 -0.028013404 -0.197460816
 122792000  0.203637904  0.274373472
 126201500  0.506644256 -0.062632256
 129611000  0.127198816 -0.297462784
 133020500  0.103518624  0.112349280
 136430000  0.402127872 -0.009269580
 139839500  0.267045200 -0.334050912
 143249000 -0.118610520 -0.107998264
 146658500  0.237109040  0.131357016
 150068000  0.290903328 -0.208767168
 153477500 -0.033103824 -0.209988512
 156887000 -0.003584989  0.096020784
 160296500  0.243068208 -0.014694695
 163706000  0.021266646 -0.155582976
 167115500 -0.085118248  0.123422184
 170525000  0.193928176  0.198863840
 173934500  0.208780416  0.016585432
 177344000  0.091019040  0.054305696
 180753500  0.166023968  0.214448784
 184163000  0.399401024  0.104596864
 187572500  0.274915904 -0.090770112
 190982000  0.173135808  0.023378564
 194391500  0.318924416  0.057715516
 197801000  0.323363200 -0.132943136
 201210500  0.116377656 -0.120234832
 204620000  0.164626384  0.082588208
 208029500  0.379854464 -0.019099128
 211439000  0.199810864 -0.241512192
 214848500  0.063730500  0.001606188
 218258000  0.312210560  0.014919638
 221667500  0.226220160 -0.249072000
 225077000 -0.019400846 -0.070271712
 228486500  0.194811200  0.091238648
 231896000  0.289126400 -0.139015856
 235305500  0.002298236 -0.167029744
 238715000  0.083143408  0.135410720
 242124500  0.331851168 -0.003379336
 245534000  0.177723024 -0.231644416
 248943500 -0.011330250 -0.017145504
 252353000  0.245680416  0.023683090
 255762500  0.166333536 -0.226390592
 259172000 -0.110115640 -0.094078128
 262581500  0.059722224  0.169861952
 265991000  0.224964608 -0.027375116
 269400500 -0.010756548 -0.068418968
 272810000  0.053518308  0.203123600
 276219500  0.310246144  0.085016840
 279629000  0.178866144 -0.139754080
 283038500 -0.014037836  0.019713676
 286448000  0.171291632  0.154028544
 289857500  0.226899424 -0.032940034
 293267000  0.040204988 -0.011825834
 296676500  0.112082008  0.174220032
 300086000  0.281116032  0.081089560
 303495500  0.162830672 -0.061045220
 306905000  0.056879296  0.100004160
 310314500 -0.005148139  0.000843733
 313724000 -0.001983482  0.000199579
 317133500 -0.002964119  0.000876094
 320543000 -0.003178828 -0.002262652
 323952500  0.000515440 -0.003219186
 327362000  0.001439846 -0.000449434
 330771500 -0.000831443 -0.000988029
 334181000  0.001263753 -0.004515168
 337590500  0.007020013 -0.002453453
 341000000  0.006609631  0.004487723
