!File created by NanoVNA
# Hz S RI R 50
     50000  0.999349248 -0.018810122
   3549500 -0.118823296 -0.882217920
   7049000 -0.195901280  0.704471488
  10548500  0.807224896  0.145848512
  14048000  0.348036960 -0.687263616
  17547500 -0.455843840  0.314441152
  21047000  0.619333248  0.367125760
  24546500  0.460687232 -0.315625280
  28046000 -0.349912256 -0.225262880
  31545500  0.446847904  0.353381728
  35045000  0.606134976 -0.002230388
  38544500 -0.078657696 -0.450364768
  42044000  0.309533728  0.299166528
  45543500  0.033726940  0.082114392
  49043000  0.582587328 -0.237500576
  52542500 -0.158867680 -0.198662288
  56042000  0.205539984  0.402408672
  59541500  0.534174848 -0.215275552
  63041000  0.249545040 -0.201185024
  66540500 -0.189745984  0.134933040
  70040000  0.529638400  0.137385248
  73539500  0.329725120 -0.429051392
  77039000 -0.217531104 -0.146888032
  80538500  0.250766848  0.323920288
  84038000  0.492114080 -0.223356192
  87537500 -0.079444488 -0.411433952
  91037000 -0.112127224  0.297223200
  94536500  0.505441728  0.056960348
  98036000  0.168486640 -0.438946656
 101535500 -0.286978496  0.040860204
 105035000  0.354014304  0.235399088
 108534500  0.231329968 -0.350555424
 112034000 -0.301668928 -0.046192388
 115533500  0.110960488  0.399065568
 119033000  0.432158976 -0.033834812
 122532500 -0.067471792 -0.209708256
 126032000 -0.028561360  0.324205952
 129531500  0.408653280  0.128619056
 133031000  0.062191736 -0.149361488
 136530500  0.024559650  0.282755360
 140030000  0.397823168  0.234928608
 143529500  0.365891104 -0.094175784
 147029000  0.104494616  0.007188307
 150528500  0.257055040  0.166993536
 154028000  0.411293792  0.026858400
 157527500  0.271804160 -0.155223712
 161027000  0.147473056  0.038235288
 164526500  0.377381632  0.066717320
 168026000  0.403565344 -0.207803360
 171525500  0.080197808 -0.229783344
 175025000  0.136042064  0.040643852
 178524500  0.354948704 -0.067486544
 182024000  0.179367536 -0.351969344
 185523500 -0.138620160 -0.085666608
 189023000  0.138209216  0.144936848
 192522500  0.258246544 -0.142958960
 196022000 -0.112205128 -0.086326736
 199521500  0.123604600  0.249612816
 203021000  0.388773504 -0.002897503
 206520500  0.121646632 -0.275555840
 210020000 -0.096846440  0.108751528
 213519500  0.305422176  0.132318320
 217019000  0.197809456 -0.209473776
 220518500 -0.103595232  0.039007884
 224018000  0.247541072  0.206347248
 227517500  0.288719424 -0.140217312
 231017000 -0.066106848 -0.073839432
 234516500  0.142786320  0.241723584
 238016000  0.362497312 -0.035283508
 241515500  0.150312128  0.000000000
 245015000  0.146877872  0.000000000
 248514500  0.144972368  0.000000000
 252014000  0.145676112  0.000000000
 255513500  0.162704528  0.000000000
 259013000  0.230508976  0.000000000
 262512500  0.350424256  0.000000000
 266012000  0.467334912  0.000000000
 269511500  0.543324544  0.000000000
 273011000  0.589882240  0.000000000
 276510500  0.620976960  0.000000000
 280010000  0.637632384  0.000000000
 283509500  0.649009728  0.000000000
 287009000  0.673948480  0.000000000
 290508500  0.719560832  0.000000000
 294008000  0.771204288  0.000000000
 297507500  0.813296896  0.000000000
 301007000  0.844719552  0.000000000
 304506500  0.869662848  0.000000000
 308006000  0.891138240  0.000000000
 311505500  0.911288896  0.000000000
 315005000  0.930455744  0.000000000
 318504500  0.947532864  0.000000000
 322004000  0.960414336  0.000000000
 325503500  0.967882816  0.000000000
 329003000  0.971431744  0.000000000
 332502500  0.973252288  0.000000000
 336002000  0.974292992  0.000000000
 339501500  0.974454848  0.000000000
 343001000  0.973411776  0.000000000
 346500500  0.971510976  0.000000000
 350000000  0.969716096  0.000000000
