!Keysight Technologies,E5063A,MY54503139,A.05.08
!Date: Fri Dec 16 02:44:07 2022
!Data & Calibration Information:
!Freq	S11:SOLT1(ON)
# Hz S RI R 50
4995004.000	-3.747439e-001	-8.789865e-001
9990008.000	-4.410845e-001	7.512729e-001
14985012.000	8.679043e-001	1.446186e-001
19980016.000	-1.454107e-001	-8.467417e-001
24975020.000	-5.718157e-001	5.621876e-001
29970024.000	7.581293e-001	3.242390e-001
34965028.000	8.756561e-002	-8.071387e-001
39960032.000	-6.733638e-001	3.446521e-001
44955036.000	6.098787e-001	4.760636e-001
49950040.000	3.001712e-001	-7.104582e-001
54945044.000	-7.086854e-001	1.062714e-001
59940048.000	4.483332e-001	5.787387e-001
64935052.000	4.348435e-001	-5.898564e-001
69930056.000	-6.679527e-001	-9.506512e-002
74925060.000	2.452907e-001	6.429319e-001
79920064.000	5.846350e-001	-4.107576e-001
84915068.000	-5.701971e-001	-3.173977e-001
89910072.000	4.414738e-002	6.495984e-001
94905076.000	6.456218e-001	-2.297124e-001
99900080.000	-4.233741e-001	-4.705916e-001
104895084.000	-1.467359e-001	5.992741e-001
109890088.000	6.482337e-001	-4.662343e-002
114885092.000	-2.429285e-001	-5.526140e-001
119880096.000	-3.005939e-001	4.936138e-001
124875100.000	6.124756e-001	1.161322e-001
129870104.000	-6.787521e-002	-5.904761e-001
134865108.000	-4.286459e-001	3.392661e-001
139860112.000	5.155881e-001	2.982866e-001
144855116.000	1.200664e-001	-5.540734e-001
149850120.000	-4.807268e-001	2.021491e-001
154845124.000	4.185360e-001	3.929572e-001
159840128.000	2.928729e-001	-4.796408e-001
164835132.000	-4.937652e-001	-9.762197e-003
169830136.000	2.650742e-001	4.626684e-001
174825140.000	3.906847e-001	-3.821678e-001
179820144.000	-4.561180e-001	-1.469456e-001
184815148.000	1.111702e-001	5.030278e-001
189810152.000	5.029088e-001	-2.243886e-001
194805156.000	-3.477730e-001	-3.241920e-001
199800160.000	-4.578568e-002	4.720067e-001
204795164.000	5.175670e-001	-9.474679e-002
209790168.000	-2.277905e-001	-4.135148e-001
214785172.000	-1.923395e-001	3.997997e-001
219780176.000	4.904822e-001	5.735851e-002
224775180.000	-8.816529e-002	-4.577057e-001
229770184.000	-3.036978e-001	3.170434e-001
234765188.000	4.385911e-001	1.946209e-001
239760192.000	8.079582e-002	-4.397975e-001
244755196.000	-3.614254e-001	1.742470e-001
249750200.000	3.586874e-001	2.975252e-001
254745204.000	2.153741e-001	-3.981318e-001
259740208.000	-3.746763e-001	2.718289e-002
264735212.000	2.437196e-001	3.533398e-001
269730216.000	3.271113e-001	-3.127096e-001
274725220.000	-3.532168e-001	-1.410322e-001
279720224.000	1.072198e-001	3.862362e-001
284715228.000	3.823991e-001	-2.193560e-001
289710232.000	-2.878229e-001	-2.605767e-001
294705236.000	-6.117909e-002	3.648908e-001
299700240.000	3.882144e-001	-7.577963e-002
304695244.000	-2.019745e-001	-3.138277e-001
309690248.000	-1.875510e-001	3.415407e-001
314685252.000	3.909502e-001	8.907279e-002
319680256.000	-5.879103e-002	-3.215822e-001
324675260.000	-2.251471e-001	2.566826e-001
329670264.000	3.604525e-001	1.822119e-001
334665268.000	6.105885e-002	-3.377064e-001
339660272.000	-2.744038e-001	1.654802e-001
344655276.000	2.861960e-001	2.701824e-001
349650280.000	2.007604e-001	-2.744959e-001
354645284.000	-2.581415e-001	4.081603e-002
359640288.000	2.255637e-001	2.973777e-001
364635292.000	2.839085e-001	-2.473652e-001
369630296.000	-2.587167e-001	-8.797464e-002
374625300.000	1.023074e-001	3.235029e-001
379620304.000	3.414531e-001	-1.470507e-001
384615308.000	-2.018008e-001	-1.741018e-001
389610312.000	2.002172e-002	3.112896e-001
394605316.000	3.700483e-001	-5.714778e-002
399600320.000	-1.084742e-001	-2.634624e-001
404595324.000	-9.274213e-002	2.560373e-001
409590328.000	3.497995e-001	4.945492e-002
414585332.000	-4.422391e-003	-2.890312e-001
419580336.000	-1.521519e-001	1.832057e-001
424575340.000	3.148397e-001	1.167017e-001
429570344.000	9.208996e-002	-3.032299e-001
434565348.000	-2.271313e-001	7.625728e-002
439560352.000	2.304169e-001	1.928977e-001
444555356.000	1.440219e-001	-2.503239e-001
449550360.000	-2.315614e-001	2.389799e-002
454545364.000	1.642515e-001	2.614039e-001
459540368.000	2.468798e-001	-1.789019e-001
464535372.000	-1.923478e-001	-7.088145e-002
469530376.000	9.115728e-002	2.653329e-001
474525380.000	2.909884e-001	-1.051790e-001
479520384.000	-1.340526e-001	-1.435696e-001
484515388.000	2.520716e-002	2.519670e-001
489510392.000	3.249977e-001	-3.445613e-002
494505396.000	-5.352805e-002	-2.262150e-001
499500400.000	-6.350710e-002	1.974735e-001
504495404.000	3.006977e-001	3.025691e-002
509490408.000	4.941007e-003	-2.380401e-001
514485412.000	-1.127073e-001	1.469913e-001
519480416.000	2.714605e-001	1.031265e-001
524475420.000	9.744065e-002	-2.444189e-001
529470424.000	-1.611269e-001	6.428858e-002
534465428.000	2.145959e-001	1.684701e-001
539460432.000	1.846281e-001	-2.139090e-001
544455436.000	-1.652758e-001	-3.809800e-002
549450440.000	1.298635e-001	1.813314e-001
554445444.000	1.968746e-001	-1.576941e-001
559440448.000	-1.545848e-001	-7.314582e-002
564435452.000	7.063155e-002	2.144132e-001
569430456.000	2.502147e-001	-8.267634e-002
574425460.000	-9.533544e-002	-1.446363e-001
579420464.000	-5.566920e-003	2.004947e-001
584415468.000	2.644172e-001	-1.176921e-002
589410472.000	-3.801790e-002	-1.811042e-001
594405476.000	-6.824257e-002	1.763760e-001
599400480.000	2.609284e-001	7.900049e-002
604395484.000	6.656489e-002	-1.809497e-001
609390488.000	-7.009853e-002	1.082900e-001
614385492.000	2.509836e-001	8.956190e-002
619380496.000	1.152186e-001	-2.114343e-001
624375500.000	-1.261780e-001	2.772366e-002
629370504.000	1.773520e-001	1.498731e-001
634365508.000	1.779525e-001	-1.649894e-001
639360512.000	-1.190432e-001	-4.390414e-002
644355516.000	1.133903e-001	1.707120e-001
649350520.000	2.083765e-001	-1.174056e-001
654345524.000	-9.707839e-002	-8.829383e-002
659340528.000	5.102094e-002	1.839233e-001
664335532.000	2.466261e-001	-4.382736e-002
669330536.000	-4.012033e-002	-1.376525e-001
674325540.000	7.447067e-004	1.665796e-001
679320544.000	2.588746e-001	1.578076e-002
684315548.000	3.106266e-002	-1.617317e-001
689310552.000	-2.067190e-002	1.129805e-001
694305556.000	2.409362e-001	3.649138e-002
699300560.000	6.721161e-002	-1.807267e-001
704295564.000	-6.655440e-002	7.092974e-002
709290568.000	2.077792e-001	9.179328e-002
714285572.000	1.259277e-001	-1.646041e-001
719280576.000	-7.979513e-002	1.887558e-002
724275580.000	1.687833e-001	1.345565e-001
729270584.000	1.913568e-001	-1.297382e-001
734265588.000	-5.395411e-002	-4.411838e-002
739260592.000	1.326472e-001	1.300430e-001
744255596.000	2.246595e-001	-1.069935e-001
749250600.000	-3.155369e-002	-1.124230e-001
754245604.000	7.121062e-002	1.129730e-001
759240608.000	2.235684e-001	-7.140178e-002
764235612.000	-9.641237e-003	-1.426921e-001
769230616.000	1.917431e-002	1.017363e-001
774225620.000	2.327077e-001	-1.898312e-002
779220624.000	4.039975e-002	-1.850696e-001
784215628.000	-4.339593e-002	5.197751e-002
789210632.000	1.796044e-001	2.656554e-002
794205636.000	5.597085e-002	-1.470753e-001
799200640.000	-5.254698e-002	5.210042e-002
804195644.000	1.754774e-001	8.769339e-002
809190648.000	1.346442e-001	-1.348020e-001
814185652.000	-4.995381e-002	-1.557978e-003
819180656.000	1.484156e-001	1.106021e-001
824175660.000	1.922348e-001	-1.068874e-001
829170664.000	-2.307913e-002	-7.071828e-002
834165668.000	1.036659e-001	1.005858e-001
839160672.000	2.054801e-001	-7.997007e-002
844155676.000	1.093384e-003	-1.031561e-001
849150680.000	7.384498e-002	8.847650e-002
854145684.000	2.190948e-001	-5.534519e-002
859140688.000	3.195175e-002	-1.443314e-001
864135692.000	2.572546e-002	6.134108e-002
869130696.000	2.148389e-001	-1.599519e-002
874125700.000	7.760948e-002	-1.742150e-001
879120704.000	-2.255775e-002	7.096592e-003
884115708.000	1.691507e-001	1.812695e-002
889110712.000	9.579790e-002	-1.572572e-001
894105716.000	-3.912015e-002	-1.381548e-002
899100720.000	1.391452e-001	4.732330e-002
904095724.000	1.234521e-001	-1.346084e-001
909090728.000	-5.100781e-002	-4.812153e-002
914085732.000	9.033629e-002	8.824706e-002
919080736.000	1.574771e-001	-7.589584e-002
924075740.000	-9.771914e-003	-5.625059e-002
929070744.000	9.142481e-002	8.721991e-002
934065748.000	1.897440e-001	-5.925249e-002
939060752.000	1.855554e-002	-9.642219e-002
944055756.000	5.961115e-002	7.776137e-002
949050760.000	2.049171e-001	-2.128275e-002
954045764.000	7.151986e-002	-1.187911e-001
959040768.000	4.720856e-002	3.618624e-002
964035772.000	1.949758e-001	-1.228286e-002
969030776.000	9.639903e-002	-1.336638e-001
974025780.000	2.290746e-002	7.297961e-003
979020784.000	1.854020e-001	1.751103e-002
984015788.000	1.412076e-001	-1.382853e-001
989010792.000	1.886623e-002	-4.288659e-002
994005796.000	1.546627e-001	2.429278e-002
999000800.000	1.715632e-001	-1.294973e-001
1003995804.000	2.292564e-002	-9.538479e-002
1008990808.000	1.135461e-001	1.364016e-002
1013985812.000	1.693772e-001	-1.138964e-001
1018980816.000	2.813336e-002	-1.205827e-001
1023975820.000	7.535551e-002	5.410520e-003
1028970824.000	1.609048e-001	-8.917627e-002
1033965828.000	3.306926e-002	-1.276674e-001
1038960832.000	4.953174e-002	1.142259e-002
1043955836.000	1.682346e-001	-5.252515e-002
1048950840.000	6.979335e-002	-1.341954e-001
1053945844.000	3.969869e-002	-8.168273e-003
1058940848.000	1.748738e-001	-3.118406e-002
1063935852.000	1.167870e-001	-1.556653e-001
1068930856.000	2.707697e-002	-6.891832e-002
1073925860.000	1.361052e-001	-3.962328e-002
1078920864.000	1.088339e-001	-1.580197e-001
1083915868.000	-2.582969e-003	-8.833034e-002
1088910872.000	1.005894e-001	-1.250291e-002
1093905876.000	1.260248e-001	-1.318944e-001
1098900880.000	2.278959e-003	-1.151154e-001
1103895884.000	5.782753e-002	-8.070089e-003
1108890888.000	1.219279e-001	-9.582629e-002
1113885892.000	1.215768e-002	-1.077191e-001
1118880896.000	4.845222e-002	8.572500e-003
1123875900.000	1.469953e-001	-6.144504e-002
1128870904.000	5.494426e-002	-1.267476e-001
1133865908.000	3.395192e-002	-1.626706e-002
1138860912.000	1.483694e-001	-3.896602e-002
1143855916.000	9.103312e-002	-1.376725e-001
1148850920.000	2.983867e-002	-5.177694e-002
1153845924.000	1.313765e-001	-4.046546e-002
1158840928.000	9.756279e-002	-1.402683e-001
1163835932.000	1.890785e-002	-6.341733e-002
1168830936.000	1.270770e-001	-2.297479e-002
1173825940.000	1.362210e-001	-1.405188e-001
1178820944.000	2.896379e-002	-1.225743e-001
1183815948.000	8.253481e-002	-4.439373e-002
1188810952.000	1.246824e-001	-1.314219e-001
1193805956.000	2.130454e-002	-1.422375e-001
1198800960.000	4.613115e-002	-5.064149e-002
1203795964.000	1.032625e-001	-1.133910e-001
1208790968.000	1.004052e-002	-1.365933e-001
1213785972.000	1.706459e-002	-2.829290e-002
1218780976.000	1.162049e-001	-6.699805e-002
1223775980.000	4.890383e-002	-1.425020e-001
1228770984.000	2.633212e-003	-5.419602e-002
1233765988.000	9.497003e-002	-4.589402e-002
1238760992.000	6.108287e-002	-1.236761e-001
1243755996.000	4.704703e-003	-4.938582e-002
1248751000.000	1.039511e-001	-1.901448e-002
1253746004.000	1.062816e-001	-1.180781e-001
1258741008.000	2.535061e-002	-8.708363e-002
1263736012.000	9.056306e-002	-3.346959e-002
1268731016.000	1.154285e-001	-1.201537e-001
1273726020.000	2.343298e-002	-1.141104e-001
1278721024.000	6.397311e-002	-3.281304e-002
1283716028.000	1.235853e-001	-1.003355e-001
1288711032.000	4.188905e-002	-1.314488e-001
1293706036.000	4.891222e-002	-4.757274e-002
1298701040.000	1.216140e-001	-9.225377e-002
1303696044.000	5.293108e-002	-1.447216e-001
1308691048.000	2.856976e-002	-6.459764e-002
1313686052.000	1.067880e-001	-7.453377e-002
1318681056.000	6.476972e-002	-1.379009e-001
1323676060.000	2.527281e-002	-6.780174e-002
1328671064.000	1.156845e-001	-5.598973e-002
1333666068.000	1.043628e-001	-1.470091e-001
1338661072.000	3.417204e-002	-1.148538e-001
1343656076.000	9.129885e-002	-8.030035e-002
1348651080.000	9.346463e-002	-1.581856e-001
1353646084.000	1.168404e-002	-1.376025e-001
1358641088.000	5.492657e-002	-7.547279e-002
1363636092.000	8.392831e-002	-1.408885e-001
1368631096.000	3.200609e-003	-1.426538e-001
1373626100.000	2.449524e-002	-6.204309e-002
1378621104.000	8.314074e-002	-1.063144e-001
1383616108.000	1.819988e-002	-1.323687e-001
1388611112.000	2.364848e-002	-5.443756e-002
1393606116.000	1.007516e-001	-8.327045e-002
1398601120.000	5.658089e-002	-1.433728e-001
1403596124.000	2.530290e-002	-8.859468e-002
1408591128.000	8.778882e-002	-9.025157e-002
1413586132.000	5.776512e-002	-1.546887e-001
1418581136.000	1.971056e-003	-1.049338e-001
1423576140.000	6.245060e-002	-7.146171e-002
1428571144.000	6.527311e-002	-1.337078e-001
1433566148.000	8.295914e-003	-1.036168e-001
1438561152.000	6.369865e-002	-5.892369e-002
1443556156.000	8.859199e-002	-1.256686e-001
1448551160.000	2.237916e-002	-1.227352e-001
1453546164.000	5.778368e-002	-6.262582e-002
1458541168.000	1.070796e-001	-1.208305e-001
1463536172.000	4.244156e-002	-1.512806e-001
1468531176.000	4.254497e-002	-8.960696e-002
1473526180.000	9.689412e-002	-1.206977e-001
1478521184.000	4.703665e-002	-1.637381e-001
1483516188.000	2.658566e-002	-1.056320e-001
1488511192.000	8.768030e-002	-1.152764e-001
1493506196.000	5.561732e-002	-1.737821e-001
1498501200.000	1.057149e-002	-1.281833e-001
1503496204.000	6.315661e-002	-1.088021e-001
1508491208.000	5.486208e-002	-1.618630e-001
1513486212.000	1.106787e-002	-1.288626e-001
1518481216.000	6.678011e-002	-1.029888e-001
1523476220.000	7.680699e-002	-1.724264e-001
1528471224.000	1.087488e-002	-1.697158e-001
1533466228.000	3.238889e-002	-1.258833e-001
1538461232.000	5.144276e-002	-1.714543e-001
1543456236.000	-1.199437e-002	-1.736013e-001
1548451240.000	-2.644784e-005	-1.099243e-001
1553446244.000	5.000887e-002	-1.392928e-001
1558441248.000	5.200408e-003	-1.714417e-001
1563436252.000	-4.719110e-003	-1.200908e-001
1568431256.000	4.315648e-002	-1.361822e-001
1573426260.000	5.309261e-003	-1.763372e-001
1578421264.000	-2.114910e-002	-1.256658e-001
1583416268.000	3.326233e-002	-1.226988e-001
1588411272.000	1.218806e-002	-1.763822e-001
1593406276.000	-3.533148e-002	-1.400459e-001
1598401280.000	8.480909e-003	-1.097360e-001
1603396284.000	1.415200e-002	-1.579201e-001
1608391288.000	-3.462208e-002	-1.419935e-001
1613386292.000	-2.588697e-003	-1.030185e-001
1618381296.000	1.417866e-002	-1.455219e-001
1623376300.000	-3.517688e-002	-1.400994e-001
1628371304.000	-1.185772e-002	-9.238789e-002
1633366308.000	2.280790e-002	-1.274839e-001
1638361312.000	-2.112197e-002	-1.410248e-001
1643356316.000	-1.307139e-002	-9.188563e-002
1648351320.000	3.644989e-002	-1.175684e-001
1653346324.000	-6.544295e-004	-1.583127e-001
1658341328.000	-2.335315e-002	-1.145957e-001
1663336332.000	2.271010e-002	-1.154948e-001
1668331336.000	8.058519e-004	-1.584190e-001
1673326340.000	-2.875087e-002	-1.224706e-001
1678321344.000	1.743404e-002	-1.131306e-001
1683316348.000	8.582716e-003	-1.653109e-001
1688311352.000	-3.950442e-002	-1.446153e-001
1693306356.000	-9.390033e-003	-1.142822e-001
1698301360.000	-1.934788e-003	-1.556124e-001
1703296364.000	-5.058120e-002	-1.464171e-001
1708291368.000	-3.030784e-002	-1.034068e-001
1713286372.000	-6.729472e-003	-1.349272e-001
1718281376.000	-4.954349e-002	-1.379412e-001
1723276380.000	-3.796361e-002	-8.961177e-002
1728271384.000	2.169696e-003	-1.128225e-001
1733266388.000	-3.158520e-002	-1.358658e-001
1738261392.000	-3.691797e-002	-9.193621e-002
1743256396.000	1.075381e-002	-1.024228e-001
1748251400.000	-1.109514e-002	-1.438431e-001
1753246404.000	-3.664410e-002	-1.129013e-001
1758241408.000	1.382318e-003	-1.094200e-001
1763236412.000	-1.413060e-002	-1.504742e-001
1768231416.000	-5.110571e-002	-1.220331e-001
1773226420.000	-1.454454e-002	-9.898890e-002
1778221424.000	-1.116104e-002	-1.410946e-001
1783216428.000	-5.490155e-002	-1.271525e-001
1788211432.000	-2.916479e-002	-8.923725e-002
1793206436.000	-4.532924e-003	-1.218538e-001
1798201440.000	-3.996486e-002	-1.285284e-001
1803196444.000	-2.665990e-002	-9.662476e-002
1808191448.000	-1.873103e-003	-1.267468e-001
1813186452.000	-4.277848e-002	-1.435934e-001
1818181456.000	-4.788764e-002	-1.016238e-001
1823176460.000	-1.309779e-002	-1.138089e-001
1828171464.000	-4.352882e-002	-1.398789e-001
1833166468.000	-6.294561e-002	-9.841614e-002
1838161472.000	-2.307722e-002	-8.875826e-002
1843156476.000	-3.039731e-002	-1.174598e-001
1848151480.000	-4.724007e-002	-8.968797e-002
1853146484.000	-4.630439e-003	-8.057516e-002
1858141488.000	-1.939431e-003	-1.247542e-001
1863136492.000	-3.696405e-002	-1.162660e-001
1868131496.000	-1.269350e-002	-9.418521e-002
1873126500.000	-1.370818e-003	-1.302461e-001
1878121504.000	-4.007497e-002	-1.300483e-001
1883116508.000	-2.632225e-002	-9.575748e-002
1888111512.000	1.555772e-003	-1.216472e-001
1893106516.000	-2.841043e-002	-1.383812e-001
1898101520.000	-2.694858e-002	-1.111288e-001
1903096524.000	-1.651840e-003	-1.327202e-001
1908091528.000	-3.422039e-002	-1.563881e-001
1913086532.000	-4.812426e-002	-1.232346e-001
1918081536.000	-1.623573e-002	-1.289416e-001
1923076540.000	-3.868308e-002	-1.613877e-001
1928071544.000	-6.812423e-002	-1.337746e-001
1933066548.000	-4.263551e-002	-1.194689e-001
1938061552.000	-4.896170e-002	-1.455028e-001
1943056556.000	-7.480626e-002	-1.223762e-001
1948051560.000	-4.430767e-002	-1.033371e-001
1953046564.000	-3.732828e-002	-1.364980e-001
1958041568.000	-7.040667e-002	-1.301744e-001
1963036572.000	-5.173422e-002	-1.034207e-001
1968031576.000	-3.584839e-002	-1.334205e-001
1973026580.000	-7.314253e-002	-1.376631e-001
1978021584.000	-6.785101e-002	-1.005605e-001
1983016588.000	-3.909591e-002	-1.156607e-001
1988011592.000	-6.260886e-002	-1.307734e-001
1993006596.000	-6.162222e-002	-1.008778e-001
1998001600.000	-2.784777e-002	-1.165525e-001
2002996604.000	-5.059379e-002	-1.498035e-001
2007991608.000	-7.401209e-002	-1.254106e-001
2012986612.000	-4.729702e-002	-1.212957e-001
2017981616.000	-6.039008e-002	-1.514812e-001
2022976620.000	-8.823172e-002	-1.318889e-001
2027971624.000	-6.634172e-002	-1.177945e-001
2032966628.000	-7.113329e-002	-1.453172e-001
2037961632.000	-1.031856e-001	-1.284962e-001
2042956636.000	-8.039209e-002	-1.013246e-001
2047951640.000	-6.544784e-002	-1.309018e-001
2052946644.000	-9.963557e-002	-1.344058e-001
2057941648.000	-9.480917e-002	-1.049063e-001
2062936652.000	-7.808980e-002	-1.223813e-001
2067931656.000	-1.094840e-001	-1.276232e-001
2072926660.000	-1.097895e-001	-9.044252e-002
2077921664.000	-7.872850e-002	-9.709842e-002
2082916668.000	-9.685401e-002	-1.157953e-001
2087911672.000	-1.046093e-001	-8.763233e-002
2092906676.000	-7.283128e-002	-9.163949e-002
2097901680.000	-8.818774e-002	-1.216857e-001
2102896684.000	-1.144381e-001	-9.858333e-002
2107891688.000	-9.005494e-002	-8.157942e-002
2112886692.000	-8.934044e-002	-1.041600e-001
2117881696.000	-1.090115e-001	-8.814900e-002
2122876700.000	-8.098982e-002	-7.240315e-002
2127871704.000	-7.293698e-002	-1.055649e-001
2132866708.000	-1.047560e-001	-1.056822e-001
2137861712.000	-9.437660e-002	-8.043462e-002
2142856716.000	-7.980872e-002	-1.028345e-001
2147851720.000	-1.129494e-001	-1.087064e-001
2152846724.000	-1.153823e-001	-7.315750e-002
2157841728.000	-8.754637e-002	-7.548923e-002
2162836732.000	-9.864383e-002	-8.906498e-002
2167831736.000	-9.849852e-002	-6.839518e-002
2172826740.000	-7.317132e-002	-7.855163e-002
2177821744.000	-9.052403e-002	-1.019359e-001
2182816748.000	-1.059825e-001	-7.881384e-002
2187811752.000	-7.989992e-002	-7.418445e-002
2192806756.000	-8.597172e-002	-1.015460e-001
2197801760.000	-1.113616e-001	-8.561571e-002
2202796764.000	-9.024018e-002	-6.638926e-002
2207791768.000	-7.931637e-002	-8.924277e-002
2212786772.000	-9.836947e-002	-8.867220e-002
2217781776.000	-8.452251e-002	-7.678102e-002
2222776780.000	-7.914710e-002	-1.020553e-001
2227771784.000	-1.101392e-001	-1.030922e-001
2232766788.000	-1.045404e-001	-7.622824e-002
2237761792.000	-8.577794e-002	-9.148963e-002
2242756796.000	-1.097437e-001	-1.030829e-001
2247751800.000	-1.144707e-001	-7.690166e-002
2252746804.000	-8.986486e-002	-8.238226e-002
2257741808.000	-1.047062e-001	-1.027116e-001
2262736812.000	-1.173027e-001	-8.513573e-002
