! File created by NanoVNA (https://gen111.taobao.com/) [MOD v2.0 by alex_m]
! Start 50016Hz  Stop 899999916Hz   Points 101
# Hz S MA R 50
!S - Parameter data, F S11
50016	0.016063076	3.210002777
9049416	0.051710996	32.902483711
18048916	0.079101104	22.191421820
27048416	0.102626480	8.855386286
36047916	0.126950193	-5.202997630
45047416	0.157819223	-21.634299258
54046916	0.187500436	-44.622971396
63046416	0.184847681	-66.665472145
72045916	0.189479238	-80.729121163
81045416	0.209899059	-96.815234894
90044916	0.232000864	-115.117053948
99044416	0.254017178	-134.707164897
108043916	0.275350930	-154.709493760
117043416	0.303003954	-175.725443568
126042916	0.325914125	160.498829822
135042416	0.323324120	137.229479803
144041916	0.314140772	118.038535515
153041416	0.316953745	101.103037697
162040916	0.328857883	84.338950357
171040416	0.345794387	66.673348411
180039916	0.365067009	48.406231102
189039416	0.384298669	29.328257152
198038916	0.403823930	8.952970562
207038416	0.411843455	-13.144626121
216037916	0.398823323	-34.764229187
225037416	0.379042960	-54.185131837
234036916	0.365842190	-71.845551837
243036416	0.362136073	-89.139539912
252035916	0.366163697	-106.913768985
261035416	0.374942510	-125.639495471
270034916	0.387268016	-145.270519209
279034416	0.401176310	-166.477646607
288033916	0.407186045	170.912295116
297033416	0.399019102	148.285520960
306032916	0.380296854	125.084473828
315032416	0.365409832	107.765897586
324031916	0.343793391	90.071541124
333031416	0.334732766	73.799985873
342030916	0.331714590	56.675167373
351030416	0.338837390	38.765807035
360029916	0.339421858	18.697471204
369029416	0.332488793	-2.848706559
378028916	0.309296360	-25.090130367
387028416	0.283223358	-46.996883889
396027916	0.253303367	-67.869330014
405027416	0.224119952	-88.203533723
414026916	0.199868136	-107.399151405
423026416	0.185559968	-125.507285148
432025916	0.175870293	-144.210734352
441025416	0.175896513	-165.711318965
450024916	0.169553124	172.524855128
459024416	0.158279278	147.065139539
468023916	0.141926814	122.356619497
477023416	0.117095849	97.756383574
486022916	0.088676550	75.691495908
495022416	0.055412418	62.353243384
504021916	0.030512968	64.326780646
513021416	0.024919117	93.951739993
522020916	0.033686025	108.565368701
531020416	0.043084490	103.779965116
540019916	0.045292453	102.707287839
549019416	0.055371262	102.132225812
558018916	0.066263057	104.518425303
567018416	0.094056628	96.468034069
576017916	0.122763870	79.313861942
585017416	0.151130117	59.363625261
594016916	0.171665324	39.331274784
603016416	0.179845969	15.114516231
612015916	0.178970809	-6.522309206
621015416	0.176387436	-28.332732495
630014916	0.174666519	-48.507281043
639014416	0.173331225	-67.762072811
648013916	0.183767956	-87.183354280
657013416	0.203518570	-107.554239982
666012916	0.228785174	-129.563953368
675012416	0.263138375	-151.734423969
684011916	0.277942305	-175.027055982
693011416	0.283852123	162.624096339
702010916	0.286548818	141.643353141
711010416	0.286022304	122.308120300
720009916	0.275059322	105.041824954
729009416	0.275170280	87.879539108
738008916	0.272838622	72.783480995
747008416	0.275641278	56.264952713
756007916	0.289327995	37.103330871
765007416	0.292499211	17.274406586
774006916	0.288403164	-3.698567243
783006416	0.296969794	-27.452542675
792005916	0.280834150	-48.582084317
801005416	0.289080518	-71.104446063
810004916	0.284091210	-93.126781930
819004416	0.288722195	-114.223216812
828003916	0.296949212	-134.952115713
837003416	0.302075532	-154.754004174
846002916	0.310056738	-175.315157616
855002416	0.308794911	163.036269454
864001916	0.306375334	143.850209769
873001416	0.293888014	123.322809523
882000916	0.287520606	105.269589708
891000416	0.271386655	87.030046968
899999916	0.266037688	73.164846039
