# Hz S RI R 50
50000 -1.00041697950416 0.007368446112387565
549500 -0.996341776888925 0.07547931581278754
1049000 -0.9873778924925389 0.14436835952417554
1548500 -0.9729137007806626 0.21415885647319177
2048000 -0.9499807929878201 0.2853943803862397
2547500 -0.9154461090413382 0.35846842848645166
3047000 -0.8626382256947904 0.42725997309242025
3546499 -0.7949294594058597 0.4789274061293652
4046000 -0.7252707100990003 0.509645746908801
4545500 -0.6613573613327614 0.5255312981302993
5045000 -0.605069744862064 0.5303394095190848
5544500 -0.5567391015488732 0.5318038956394416
6044000 -0.5140256694749488 0.5291084808737759
6543500 -0.47634795689907244 0.5251196956291189
7042999 -0.4424400880771542 0.518306057669946
7542500 -0.4138727564333986 0.5120101414349254
8042000 -0.3865529731115162 0.5046238338136558
8541500 -0.36333058030665394 0.4979289692323802
9041000 -0.34273724404843287 0.49099315710239055
9540500 -0.323107930740327 0.48477743984125915
10040000 -0.30585500304288327 0.4778683472465095
10539500 -0.28986201340207535 0.47188552084415336
11039000 -0.2751326536556212 0.4658128778515022
11538500 -0.2615490025084227 0.4602730230832622
12038000 -0.2490857117538298 0.4556170439292226
12537500 -0.2377404233859915 0.4510163706271229
13037000 -0.22637950258387582 0.44697144049615234
13536500 -0.2159299912013234 0.4427956274525571
14035999 -0.20613346622012907 0.43905265613923905
14535500 -0.19654394356237273 0.4361195022203721
15035000 -0.18759037608652937 0.43274449003892057
15534500 -0.1791107608921707 0.43002021361134674
16034000 -0.1710046633786109 0.4272395699720335
16533500 -0.16283522725196628 0.42500363991711954
17033000 -0.15439520997675651 0.4224132932021279
17532500 -0.14743275039105247 0.42015544305773866
18032000 -0.1400779056138573 0.41769087303513025
18531500 -0.13260266449944239 0.41582777553634054
19031000 -0.1261924381678961 0.41451296771754476
19530500 -0.1193989345467498 0.4121966383599493
20030000 -0.11190637875752613 0.4105699941879765
20529500 -0.10591284273701149 0.40825837749999194
21029000 -0.09917775699158775 0.40684170857426133
21528500 -0.09298899307484991 0.40535303033973774
22028000 -0.08724797078922257 0.4042250785377859
22527498 -0.0815627105004187 0.40204969294516724
23027000 -0.0753154410819677 0.400610446618857
23526500 -0.06996323046250205 0.3998241015176884
24026000 -0.06395945116831682 0.3976493467565379
24525500 -0.058862875582130866 0.39673865845291395
25025000 -0.05303090516325329 0.3951446057722247
25524502 -0.04837058263678592 0.39334236624766744
26024000 -0.04330353590654032 0.3918379291105977
26523500 -0.03829150027280185 0.39041363357161646
27023000 -0.03310425742121311 0.3891549511005446
27522500 -0.028020021662275726 0.3878615329147108
28021998 -0.023233356960958868 0.38622733191628905
28521500 -0.018505604024761944 0.3850838768392251
29021000 -0.013777173281518989 0.38382797707919203
29520500 -0.009519632466691198 0.38243573049738105
30020000 -0.004914899272790983 0.380917399576336
30519498 -0.0005837553296068603 0.37941796383273635
31019000 0.004048985274915328 0.3784330420686367
31518500 0.00838861961451085 0.37688677613084487
32018000 0.012223365693289794 0.37596724833248746
32517500 0.016381591575752703 0.3745069942901383
33017000 0.020150443140284063 0.37300169454052956
33516502 0.024442486775188725 0.3718199370733935
34016000 0.0284380272268602 0.37017097659326775
34515500 0.031895431090188664 0.3692752307550121
35015000 0.035493289250350175 0.3680034034101923
35514500 0.03969552657246945 0.3664589644215092
36014000 0.043099823529211 0.36469535480932835
36513500 0.04658258560225766 0.3631159772250963
37013000 0.050531248066622333 0.3626668039806337
37512500 0.05391516802011651 0.3609293166976066
38012000 0.05744445196250204 0.35990263070396017
38511500 0.06061393521163962 0.3587101395466945
39011000 0.06337471239237416 0.3570989676534541
39510500 0.06731758706798341 0.35601041134519384
40010000 0.07035131285264729 0.3542789740752902
40509500 0.07318409530864843 0.3534984096688054
41009000 0.07622216320051235 0.3518197469389692
41508500 0.07949911273488557 0.3509528658613572
42008000 0.08248145280152842 0.34963287608455884
42507500 0.08517678758437794 0.3481743671814987
43007000 0.08827127949686066 0.34686706458592154
43506500 0.09121503648727604 0.3456590362932798
44006000 0.09381410898506265 0.3450354078969208
44505500 0.09634102166675249 0.3431377073623608
45004996 0.09931805999284166 0.3425307371090157
45504500 0.10172425572677396 0.3410999110278958
46004000 0.105146475591464 0.3395347533665341
46503500 0.10680194977155597 0.3383487189502829
47003000 0.10940378301497697 0.33788666393708444
47502496 0.11319350376110547 0.3361534081060297
48002000 0.1153581075240615 0.33445253459189206
48501504 0.11790991660966287 0.3341424066854862
49001000 0.11981570441271923 0.3320359445741313
49500500 0.12270392444559841 0.3316092760811069
50000000 0.12411931447798977 0.3306888268702544
