! File created by NanoVNA (https://gen111.taobao.com/)
! Start 50016Hz  Stop 50000000Hz   Points 101
# HZ S MA R 50
!S - Parameter data, F S11
50016	1.000140722	179.579946420
549515	0.999073291	175.741525264
1049015	0.997241252	171.836920747
1548515	0.994042187	167.771607178
2048015	0.987920016	163.511027782
2547515	0.976588546	158.823360015
3047015	0.950484212	153.927284456
3546515	0.911190569	149.484897347
4046014	0.865859058	145.834285867
4545514	0.822747800	142.885524171
5045014	0.783456292	140.449761984
5544514	0.747929646	138.360367622
6044014	0.715728536	136.540182094
6543513	0.686500300	135.019863888
7043014	0.660472566	133.596137713
7542514	0.636610026	132.345385561
8042013	0.615734099	131.223173578
8541513	0.595674503	130.226444784
9041013	0.578295409	129.345309273
9540513	0.562458218	128.466977991
10040013	0.547975556	127.718268476
10539512	0.535101541	126.936436575
11039013	0.522735228	126.267987809
11538513	0.512016828	125.581089281
12038012	0.502067841	125.002418380
12537512	0.492439777	124.363080097
13037011	0.484363321	123.791292583
13536512	0.476471160	123.186278555
14036012	0.469048642	122.644443818
14535511	0.462342137	122.060579727
15035012	0.455980125	121.509809683
15534511	0.450587298	120.995030267
16034011	0.444595726	120.464431439
16533510	0.439746192	119.908805115
17033010	0.434923842	119.377082470
17532510	0.430350747	118.842089149
18032010	0.426281770	118.304295510
18531510	0.422399980	117.795773283
19031010	0.418418364	117.287859536
19530510	0.415080191	116.755193833
20030010	0.411582905	116.267749118
20529510	0.408348690	115.777540360
21029008	0.405140311	115.258022879
21528508	0.402173993	114.795685997
22028010	0.399546703	114.284917912
22527510	0.397012065	113.856205023
23027010	0.394373023	113.412477829
23526508	0.392223383	112.941886832
24026008	0.389828108	112.412848734
24525508	0.387342494	111.995654864
25025008	0.385518350	111.559638848
25524506	0.383694529	111.120228280
26024006	0.381761940	110.713822212
26523508	0.379723226	110.275468142
27023008	0.378244046	109.826274925
27522508	0.376281829	109.448219704
28022008	0.374749930	109.009798010
28521506	0.373116571	108.610772920
29021006	0.371768934	108.249786012
29520506	0.370390883	107.867762326
30020008	0.369229509	107.478371856
30519508	0.367691140	107.104789589
31019006	0.366459586	106.744374864
31518506	0.365351737	106.375883298
32018006	0.363950453	106.063667969
32517506	0.363506353	105.665228873
33017004	0.362301381	105.352674643
33516504	0.361346844	105.028328471
34016004	0.360139239	104.683032211
34515504	0.359157000	104.308680862
35015004	0.358716313	104.023415669
35514504	0.357730162	103.710177993
36014004	0.356737802	103.524595018
36513504	0.356325818	103.119438168
37013004	0.355673281	102.932701505
37512504	0.354569197	102.608141382
38012004	0.353397484	102.343903842
38511504	0.353461414	102.046642233
39011004	0.353124274	101.787262070
39510504	0.351802226	101.560937554
40010004	0.351946471	101.324126492
40509504	0.350866321	100.972618452
41009004	0.350425908	100.712816092
41508500	0.350018108	100.580896852
42008000	0.349824676	100.292767936
42507504	0.349293587	100.117597415
43007000	0.348603932	99.883310124
43506504	0.348338394	99.642336967
44006004	0.348180501	99.470109692
44505500	0.347967447	99.272642082
45005004	0.347440782	98.973464453
45504500	0.347362919	98.894370429
46004004	0.347501624	98.614399373
46503500	0.347261312	98.469914493
47003000	0.346680286	98.333206657
47502500	0.346296752	98.062919609
48002000	0.346190550	97.928695081
48501504	0.345816229	97.802079607
49001000	0.345818037	97.602065774
49500500	0.345960333	97.472768374
50000000	0.345965867	97.266841351
