#  HZ   S   RI   R     50.00 
! Rohde & Schwarz Vector Network Analyzer 
! Rohde-Schwarz,ZNC3-2Port,1311600412101324,1.93
! Created: UTC 5/4/2020, 4:08:31 PM
! freq[Hz]                re:S11                  im:S11
 5.000000000000000E4    -1.000193611347694       6.168578964723261E-3
 1.325619834710744E5    -9.995345871369912E-1    1.680550189204017E-2
 2.151239669421488E5    -9.996297986732495E-1    2.728140851019133E-2
 2.976859504132231E5    -9.985896313356526E-1    3.786507673815134E-2
 3.802479338842975E5    -9.984640388743189E-1    4.842673355573112E-2
 4.628099173553719E5    -9.978678244977021E-1    5.862547497022888E-2
 5.453719008264463E5    -9.972228939196689E-1    6.927653061155692E-2
 6.279338842975206E5    -9.960377115233103E-1    7.996736461083626E-2
 7.104958677685950E5    -9.949825291166005E-1    9.045331752110492E-2
 7.930578512396694E5    -9.941182368354503E-1    1.009625945847370E-1
 8.756198347107437E5    -9.926255908598186E-1    1.116188955885113E-1
 9.581818181818181E5    -9.913782277262173E-1    1.221519422468843E-1
 1.040743801652893E6    -9.896065674400403E-1    1.328770963860039E-1
 1.123305785123967E6    -9.881004059184666E-1    1.435314793565519E-1
 1.205867768595041E6    -9.862587891040016E-1    1.542494694970642E-1
 1.288429752066116E6    -9.843354595838537E-1    1.650992097492475E-1
 1.370991735537190E6    -9.821603783499340E-1    1.756721865946806E-1
 1.453553719008264E6    -9.798056951880840E-1    1.865420054797136E-1
 1.536115702479339E6    -9.775527721106996E-1    1.976558298401153E-1
 1.618677685950413E6    -9.747641234979058E-1    2.085867156144341E-1
 1.701239669421488E6    -9.720129299787265E-1    2.194734940192833E-1
 1.783801652892562E6    -9.690275493435591E-1    2.306190561705148E-1
 1.866363636363636E6    -9.657513627104866E-1    2.418505250656398E-1
 1.948925619834711E6    -9.623992467653919E-1    2.531578307663640E-1
 2.031487603305785E6    -9.587097085006286E-1    2.644537709662148E-1
 2.114049586776859E6    -9.548348829978640E-1    2.760743398177675E-1
 2.196611570247934E6    -9.505376355316109E-1    2.873474826285683E-1
 2.279173553719008E6    -9.458106720581989E-1    2.991158427040646E-1
 2.361735537190083E6    -9.406981218115614E-1    3.108459931444125E-1
 2.444297520661157E6    -9.353499830814178E-1    3.225620239100067E-1
 2.526859504132231E6    -9.293517629886782E-1    3.342541065072772E-1
 2.609421487603306E6    -9.229759312622320E-1    3.460434549366678E-1
 2.691983471074380E6    -9.159899747308078E-1    3.576094042189286E-1
 2.774545454545454E6    -9.086960149786507E-1    3.690539939387935E-1
 2.857107438016529E6    -9.005390118969172E-1    3.801170429006364E-1
 2.939669421487603E6    -8.920942895694742E-1    3.910770388467145E-1
 3.022231404958678E6    -8.831040952668580E-1    4.017591434099666E-1
 3.104793388429752E6    -8.734736307715336E-1    4.118998389444736E-1
 3.187355371900826E6    -8.636764416195425E-1    4.216115122791782E-1
 3.269917355371901E6    -8.534656895068419E-1    4.306325488010651E-1
 3.352479338842975E6    -8.426139587127872E-1    4.394068701702730E-1
 3.435041322314049E6    -8.318904182090559E-1    4.472048829425827E-1
 3.517603305785124E6    -8.206717568419476E-1    4.544900181423130E-1
 3.600165289256198E6    -8.097890339537018E-1    4.614260078919366E-1
 3.682727272727273E6    -7.986038651143319E-1    4.673852406117780E-1
 3.765289256198347E6    -7.876273272486069E-1    4.731595232524773E-1
 3.847851239669421E6    -7.763837216499833E-1    4.782167154045162E-1
 3.930413223140496E6    -7.655197739290736E-1    4.829937276093397E-1
 4.012975206611570E6    -7.544622212979593E-1    4.870962388323745E-1
 4.095537190082644E6    -7.438127611418023E-1    4.908237665931542E-1
 4.178099173553719E6    -7.334475569006743E-1    4.941955859926814E-1
 4.260661157024793E6    -7.230731585810735E-1    4.971290744071371E-1
 4.343223140495868E6    -7.128488785953826E-1    4.999973060305684E-1
 4.425785123966942E6    -7.028714565866231E-1    5.023399350503972E-1
 4.508347107438017E6    -6.932292466806543E-1    5.045266372334698E-1
 4.590909090909091E6    -6.836968619662160E-1    5.062861872392170E-1
 4.673471074380165E6    -6.742158363941776E-1    5.077444328800406E-1
 4.756033057851239E6    -6.650617628165870E-1    5.092759457613117E-1
 4.838595041322313E6    -6.559849492145897E-1    5.104435328179811E-1
 4.921157024793388E6    -6.472952007066639E-1    5.113798246897116E-1
 5.003719008264463E6    -6.384301588230258E-1    5.122253321602212E-1
 5.086280991735537E6    -6.302464250462951E-1    5.130213535060271E-1
 5.168842975206612E6    -6.219873953597016E-1    5.135063450700147E-1
 5.251404958677686E6    -6.140419962301168E-1    5.138447395463522E-1
 5.333966942148760E6    -6.061332874228517E-1    5.142731120676757E-1
 5.416528925619834E6    -5.985246176312569E-1    5.143890061435864E-1
 5.499090909090908E6    -5.910410379759449E-1    5.143209517559312E-1
 5.581652892561983E6    -5.834746669830195E-1    5.142719381582894E-1
 5.664214876033058E6    -5.763139335023799E-1    5.141572692322772E-1
 5.746776859504132E6    -5.692930194407193E-1    5.138355341091629E-1
 5.829338842975207E6    -5.625486344923768E-1    5.136859630168046E-1
 5.911900826446281E6    -5.557590489300716E-1    5.134779159574041E-1
 5.994462809917355E6    -5.490657886134926E-1    5.129967631972181E-1
 6.077024793388429E6    -5.427098154848606E-1    5.124192528186333E-1
 6.159586776859503E6    -5.363431399860050E-1    5.119808692584353E-1
 6.242148760330578E6    -5.301364073377834E-1    5.112606314997740E-1
 6.324710743801653E6    -5.240698704645237E-1    5.105744779027153E-1
 6.407272727272727E6    -5.181924681309040E-1    5.100090809435942E-1
 6.489834710743802E6    -5.123470789031460E-1    5.092228021774459E-1
 6.572396694214876E6    -5.067020152122915E-1    5.083977122285213E-1
 6.654958677685950E6    -5.009691607440112E-1    5.076538925365609E-1
 6.737520661157024E6    -4.956164629735828E-1    5.069248786693468E-1
 6.820082644628098E6    -4.901715834575470E-1    5.058978892838009E-1
 6.902644628099173E6    -4.848136952376814E-1    5.052974402829689E-1
 6.985206611570247E6    -4.797574373923916E-1    5.041502436231592E-1
 7.067768595041322E6    -4.748757623060006E-1    5.032988137401140E-1
 7.150330578512397E6    -4.698296639887333E-1    5.023706384707740E-1
 7.232892561983471E6    -4.648797069465775E-1    5.013290756087667E-1
 7.315454545454545E6    -4.602413382395553E-1    5.002144756756073E-1
 7.398016528925619E6    -4.554987285214007E-1    4.992204388599472E-1
 7.480578512396693E6    -4.509900208936911E-1    4.982400692675357E-1
 7.563140495867768E6    -4.464593525761146E-1    4.971331119367803E-1
 7.645702479338842E6    -4.419289783023073E-1    4.961921733457118E-1
 7.728264462809917E6    -4.378201601687994E-1    4.950914882921210E-1
 7.810826446280992E6    -4.335121245260181E-1    4.940178017107950E-1
 7.893388429752066E6    -4.294077026346624E-1    4.931300603604195E-1
 7.975950413223140E6    -4.252046384108508E-1    4.919688375671670E-1
 8.058512396694214E6    -4.211542665634246E-1    4.909087270262179E-1
 8.141074380165288E6    -4.171906129557144E-1    4.897516817605251E-1
 8.223636363636363E6    -4.135202732999759E-1    4.888324862665897E-1
 8.306198347107437E6    -4.097310635643308E-1    4.875310618890896E-1
 8.388760330578512E6    -4.058522897941678E-1    4.865399487269873E-1
 8.471322314049587E6    -4.022175371103752E-1    4.855209439863368E-1
 8.553884297520660E6    -3.987044978513435E-1    4.844299192112453E-1
 8.636446280991735E6    -3.951461654391053E-1    4.832731701436411E-1
 8.719008264462810E6    -3.917640881742954E-1    4.821705464971368E-1
 8.801570247933883E6    -3.883578938574496E-1    4.811124815272904E-1
 8.884132231404958E6    -3.848631209746292E-1    4.800430984582120E-1
 8.966694214876033E6    -3.815717436531226E-1    4.788864231162170E-1
 9.049256198347107E6    -3.783907200637558E-1    4.780641908889790E-1
 9.131818181818182E6    -3.752753006037184E-1    4.767712978086384E-1
 9.214380165289255E6    -3.721370113839598E-1    4.756607441846900E-1
 9.296942148760330E6    -3.689255596250153E-1    4.746802032835937E-1
 9.379504132231405E6    -3.659982976341627E-1    4.737024245341965E-1
 9.462066115702478E6    -3.629095853379424E-1    4.726381048147402E-1
 9.544628099173553E6    -3.601310532943777E-1    4.716765346106370E-1
 9.627190082644627E6    -3.570929712281610E-1    4.705291622843410E-1
 9.709752066115702E6    -3.542057037208930E-1    4.694851132049193E-1
 9.792314049586777E6    -3.515848026331641E-1    4.686490656444258E-1
 9.874876033057850E6    -3.488282335706575E-1    4.675483307468425E-1
 9.957438016528925E6    -3.460928705505766E-1    4.666741609024759E-1
 1.004000000000000E7    -3.435889955772873E-1    4.655283158874898E-1
 1.012256198347107E7    -3.409910196643517E-1    4.645703794691879E-1
 1.020512396694215E7    -3.383989199444805E-1    4.636779027749609E-1
 1.028768595041322E7    -3.355798438682020E-1    4.627208774087619E-1
 1.037024793388430E7    -3.332954609534430E-1    4.617641447364423E-1
 1.045280991735537E7    -3.307637007142623E-1    4.607851100367212E-1
 1.053537190082645E7    -3.285169092159843E-1    4.599497413278895E-1
 1.061793388429752E7    -3.258544524890157E-1    4.590115614056911E-1
 1.070049586776860E7    -3.236354193584391E-1    4.581963871052867E-1
 1.078305785123967E7    -3.212985288208566E-1    4.571733074064077E-1
 1.086561983471074E7    -3.188574249117596E-1    4.562858722012768E-1
 1.094818181818182E7    -3.166891386831618E-1    4.554425537210302E-1
 1.103074380165289E7    -3.145930686446452E-1    4.545851477092793E-1
 1.111330578512397E7    -3.124696053180670E-1    4.539178124680542E-1
 1.119586776859504E7    -3.103071861113685E-1    4.528996911632138E-1
 1.127842975206612E7    -3.080782436787316E-1    4.521541024292934E-1
 1.136099173553719E7    -3.059194517708221E-1    4.512513392134075E-1
 1.144355371900826E7    -3.040431337635722E-1    4.503894616116005E-1
 1.152611570247934E7    -3.018191097459655E-1    4.496387138992914E-1
 1.160867768595041E7    -2.996656751933524E-1    4.488736874594528E-1
 1.169123966942149E7    -2.978512840219711E-1    4.480595275814561E-1
 1.177380165289256E7    -2.957987778624718E-1    4.472637813088840E-1
 1.185636363636364E7    -2.939591684143678E-1    4.464103376529085E-1
 1.193892561983471E7    -2.918521868754456E-1    4.456488725426432E-1
 1.202148760330579E7    -2.902000134838327E-1    4.450967622138794E-1
 1.210404958677686E7    -2.882258721994498E-1    4.442462597066290E-1
 1.218661157024793E7    -2.864015790437041E-1    4.435781920827571E-1
 1.226917355371901E7    -2.844822949469543E-1    4.428375049777716E-1
 1.235173553719008E7    -2.826202668235928E-1    4.420600356205481E-1
 1.243429752066116E7    -2.809131596326362E-1    4.413938498821227E-1
 1.251685950413223E7    -2.790599460122750E-1    4.408830546488073E-1
 1.259942148760331E7    -2.775107615964535E-1    4.401146167454128E-1
 1.268198347107438E7    -2.757676059313661E-1    4.395642512361780E-1
 1.276454545454545E7    -2.738646620490537E-1    4.388293779857032E-1
 1.284710743801653E7    -2.721247437686341E-1    4.381139821319861E-1
 1.292966942148760E7    -2.705078442443525E-1    4.374928879827360E-1
 1.301223140495868E7    -2.689315933310975E-1    4.369918306429037E-1
 1.309479338842975E7    -2.672468711922362E-1    4.363668136152800E-1
 1.317735537190083E7    -2.654997997341986E-1    4.357864246066862E-1
 1.325991735537190E7    -2.639951155927786E-1    4.352231520954413E-1
 1.334247933884298E7    -2.624756202961743E-1    4.344955061092988E-1
 1.342504132231405E7    -2.606177201291854E-1    4.337999273408756E-1
 1.350760330578512E7    -2.592500584512613E-1    4.333884097668799E-1
 1.359016528925620E7    -2.577761121339327E-1    4.328119667513748E-1
 1.367272727272727E7    -2.563311434109209E-1    4.323272909339075E-1
 1.375528925619835E7    -2.546472033863867E-1    4.317550684719196E-1
 1.383785123966942E7    -2.531515097805028E-1    4.312963069742367E-1
 1.392041322314050E7    -2.517123444956982E-1    4.306500529376946E-1
 1.400297520661157E7    -2.500237397793707E-1    4.302175603475672E-1
 1.408553719008264E7    -2.487799446888075E-1    4.297305904179568E-1
 1.416809917355372E7    -2.473530089812499E-1    4.290904896108326E-1
 1.425066115702479E7    -2.458088580232789E-1    4.287299024913774E-1
 1.433322314049587E7    -2.443583977726042E-1    4.282151187291340E-1
 1.441578512396694E7    -2.429203973176504E-1    4.278166134894021E-1
 1.449834710743802E7    -2.415697489100431E-1    4.274015116610450E-1
 1.458090909090909E7    -2.400363224474672E-1    4.267176519797037E-1
 1.466347107438017E7    -2.388322796661667E-1    4.262335935804454E-1
 1.474603305785124E7    -2.372750491627183E-1    4.257950889797207E-1
 1.482859504132231E7    -2.359894143203191E-1    4.255620018323080E-1
 1.491115702479339E7    -2.346663362920009E-1    4.250328118006949E-1
 1.499371900826446E7    -2.334082466607965E-1    4.244509011383482E-1
 1.507628099173554E7    -2.320650391352479E-1    4.241537935457921E-1
 1.515884297520661E7    -2.306606985270873E-1    4.237005147871841E-1
 1.524140495867769E7    -2.292674408360386E-1    4.232643816624948E-1
 1.532396694214876E7    -2.280176847496353E-1    4.229269332195869E-1
 1.540652892561983E7    -2.266735568270207E-1    4.225676673739511E-1
 1.548909090909091E7    -2.254810103811837E-1    4.219822607380631E-1
 1.557165289256198E7    -2.241192784007070E-1    4.216397800581017E-1
 1.565421487603306E7    -2.230003714997706E-1    4.212828518936896E-1
 1.573677685950413E7    -2.216505209940842E-1    4.211484749072293E-1
 1.581933884297521E7    -2.204372438665713E-1    4.206423815319493E-1
 1.590190082644628E7    -2.191573840717647E-1    4.203539179898594E-1
 1.598446280991736E7    -2.177266392996455E-1    4.200940677619718E-1
 1.606702479338843E7    -2.166841604304250E-1    4.194970882130918E-1
 1.614958677685950E7    -2.154901188035426E-1    4.191946997531382E-1
 1.623214876033058E7    -2.141350237030180E-1    4.187880803146730E-1
 1.631471074380165E7    -2.130999812592063E-1    4.185317609497891E-1
 1.639727272727273E7    -2.117612878621287E-1    4.181934055622695E-1
 1.647983471074380E7    -2.104945066451642E-1    4.177293551646431E-1
 1.656239669421488E7    -2.093939268736846E-1    4.174897497411046E-1
 1.664495867768595E7    -2.082633484352579E-1    4.172278315890889E-1
 1.672752066115702E7    -2.071394908412478E-1    4.170819788802380E-1
 1.681008264462810E7    -2.060516461905120E-1    4.165125314718985E-1
 1.689264462809917E7    -2.048202344136086E-1    4.163103847974240E-1
 1.697520661157025E7    -2.035647332033188E-1    4.158674712179860E-1
 1.705776859504132E7    -2.024297915399157E-1    4.156418391289057E-1
 1.714033057851240E7    -2.014058434085958E-1    4.154604224918904E-1
 1.722289256198347E7    -2.001851051177814E-1    4.151739884791650E-1
 1.730545454545454E7    -1.990271075862415E-1    4.147291729526532E-1
 1.738801652892562E7    -1.979208094675381E-1    4.144339791535224E-1
 1.747057851239669E7    -1.969341711904397E-1    4.140087119173539E-1
 1.755314049586777E7    -1.956648770227784E-1    4.140126688271098E-1
 1.763570247933884E7    -1.946918141739714E-1    4.137184505236928E-1
 1.771826446280992E7    -1.935192606431699E-1    4.134017372470259E-1
 1.780082644628099E7    -1.924051699182869E-1    4.131071781778743E-1
 1.788338842975207E7    -1.914084244319022E-1    4.129157703731863E-1
 1.796595041322314E7    -1.902929492344578E-1    4.126606121399786E-1
 1.804851239669421E7    -1.891413388087007E-1    4.123708996240182E-1
 1.813107438016529E7    -1.880667205680638E-1    4.120231258735818E-1
 1.821363636363636E7    -1.870221756681537E-1    4.118867867067452E-1
 1.829619834710744E7    -1.860351971619674E-1    4.117006115564119E-1
 1.837876033057851E7    -1.849161251701939E-1    4.113937147202457E-1
 1.846132231404959E7    -1.838920530813936E-1    4.111375497626774E-1
 1.854388429752066E7    -1.829044212553657E-1    4.108278739623436E-1
 1.862644628099173E7    -1.817358494996317E-1    4.105715129525522E-1
 1.870900826446281E7    -1.808268495535715E-1    4.104637622103363E-1
 1.879157024793388E7    -1.796175353952237E-1    4.101432572579598E-1
 1.887413223140496E7    -1.786402295002781E-1    4.099740500406498E-1
 1.895669421487603E7    -1.777388515194770E-1    4.097511590276167E-1
 1.903925619834711E7    -1.766097406113937E-1    4.096047086843220E-1
 1.912181818181818E7    -1.758257917009782E-1    4.094112632224117E-1
 1.920438016528925E7    -1.746429453951077E-1    4.091807763571583E-1
 1.928694214876033E7    -1.735976349086725E-1    4.087880624159351E-1
 1.936950413223140E7    -1.726536799814449E-1    4.086447313273101E-1
 1.945206611570248E7    -1.716405496215783E-1    4.084029635992230E-1
 1.953462809917355E7    -1.706929622453752E-1    4.081786540777963E-1
 1.961719008264463E7    -1.696506889121770E-1    4.080867240828456E-1
 1.969975206611570E7    -1.686128944003221E-1    4.078257667373028E-1
 1.978231404958678E7    -1.675256055204582E-1    4.076929432594009E-1
 1.986487603305785E7    -1.666248402753777E-1    4.073896776807566E-1
 1.994743801652892E7    -1.657828792731506E-1    4.072385642124628E-1
 2.003000000000000E7    -1.647986319868191E-1    4.071092508085908E-1
 2.011256198347107E7    -1.637358934270240E-1    4.069158173516700E-1
 2.019512396694215E7    -1.627354320981714E-1    4.065898721218760E-1
 2.027768595041322E7    -1.620313853869690E-1    4.065866989795801E-1
 2.036024793388430E7    -1.610435466337502E-1    4.064085825988632E-1
 2.044280991735537E7    -1.599152512717222E-1    4.061565407066766E-1
 2.052537190082645E7    -1.589062787375272E-1    4.059242914107055E-1
 2.060793388429752E7    -1.580469405432873E-1    4.056993610176879E-1
 2.069049586776859E7    -1.572202232645790E-1    4.056477699750503E-1
 2.077305785123967E7    -1.562323171133362E-1    4.054168562000645E-1
 2.085561983471074E7    -1.551567313804661E-1    4.052602470495554E-1
 2.093818181818182E7    -1.543811130950621E-1    4.049679793248199E-1
 2.102074380165289E7    -1.535528205110008E-1    4.048965841201052E-1
 2.110330578512397E7    -1.526091070029794E-1    4.048136998642725E-1
 2.118586776859504E7    -1.516576040166893E-1    4.046034748829650E-1
 2.126842975206611E7    -1.507697868713521E-1    4.042393685256662E-1
 2.135099173553719E7    -1.497666850245406E-1    4.042336121707411E-1
 2.143355371900826E7    -1.490581974862688E-1    4.041865615110398E-1
 2.151611570247934E7    -1.479729552783074E-1    4.039971847858354E-1
 2.159867768595041E7    -1.473159537370900E-1    4.036047541155529E-1
 2.168123966942149E7    -1.463814039476755E-1    4.035293494734450E-1
 2.176380165289256E7    -1.452636775138801E-1    4.036148355678548E-1
 2.184636363636363E7    -1.442480382828039E-1    4.034116493746023E-1
 2.192892561983471E7    -1.438304700652678E-1    4.031389803030140E-1
 2.201148760330578E7    -1.427514725875808E-1    4.028991775915022E-1
 2.209404958677686E7    -1.418771166506173E-1    4.026990937716206E-1
 2.217661157024793E7    -1.409794681062630E-1    4.025845615704652E-1
 2.225917355371901E7    -1.401777144272895E-1    4.025002340758487E-1
 2.234173553719008E7    -1.391823196599439E-1    4.022471943827678E-1
 2.242429752066116E7    -1.383150091922246E-1    4.021287806127852E-1
 2.250685950413223E7    -1.374731614341289E-1    4.020615540441903E-1
 2.258942148760330E7    -1.364916031822078E-1    4.019865138602186E-1
 2.267198347107438E7    -1.358804759844318E-1    4.017475840489856E-1
 2.275454545454545E7    -1.350100987015532E-1    4.017896985907870E-1
 2.283710743801653E7    -1.341259949859869E-1    4.014956283362566E-1
 2.291966942148760E7    -1.332489848279184E-1    4.014197366112059E-1
 2.300223140495868E7    -1.323390526642772E-1    4.012192852615456E-1
 2.308479338842975E7    -1.315034686451863E-1    4.011661855563138E-1
 2.316735537190083E7    -1.308825113418871E-1    4.009624111707127E-1
 2.324991735537190E7    -1.299164961358947E-1    4.008569573318407E-1
