!File created by NanoVNA
# Hz S RI R 50
     50000  0.662031360 -0.004398882
   4299500 -0.294002688 -0.591962432
   8549000  0.320331616  0.454798368
  12798500  0.499105920 -0.269354464
  17048000 -0.443804416  0.043796508
  21297500  0.468731712  0.226993296
  25547000  0.283611808 -0.396967264
  29796500 -0.060145248  0.358734272
  34046000  0.400996544 -0.105245768
  38295500  0.170883824 -0.326773024
  42545000  0.034983044  0.220628240
  46794500  0.435095808 -0.066549228
  51044000 -0.056635168 -0.293093504
  55293500  0.206473152  0.275676384
  59543000  0.397058528 -0.205903344
  63792500 -0.180303632 -0.152020304
  68042000  0.341067744  0.143471568
  72291500  0.268528224 -0.325736800
  76541000 -0.132271216  0.070746400
  80790500  0.332533440  0.008492928
  85040000  0.097153528 -0.317247040
  89289500 -0.027397470  0.055309532
  93539000  0.248007424 -0.029250922
  97788500  0.014819762 -0.188736416
 102038000 -0.005174920  0.020636180
 106287500  0.228681776  0.014600736
 110537000 -0.033463194 -0.144056272
 114786500  0.106582568  0.212042848
 119036000  0.290244288 -0.072643224
 123285500  0.046809040 -0.070941976
 127535000  0.226946480  0.084792456
 131784500  0.239068608 -0.174567872
 136034000  0.003375238 -0.032713916
 140283500  0.314406336  0.010291334
 144533000  0.145232768 -0.293932352
 148782500 -0.006394173  0.076566680
 153032000  0.294501472 -0.107327968
 157281500  0.008816675 -0.232861680
 161531000  0.103963736  0.117278272
 165780500  0.292824672 -0.173433024
 170030000 -0.087384064 -0.213708240
 174279500  0.154099664  0.120958504
 178529000  0.249833072 -0.213015760
 182778500 -0.123430680 -0.129492672
 187028000  0.203187392  0.081715192
 191277500  0.158459104 -0.237305264
 195527000 -0.061647740  0.041713116
 199776500  0.276004960 -0.020695672
 204026000  0.099772584 -0.258202432
 208275500 -0.031462848  0.025136984
 212525000  0.217003840 -0.058595536
 216774500  0.032993824 -0.183086608
 221024000  0.059118812  0.057979112
 225273500  0.195877728 -0.112099736
 229523000 -0.008995265 -0.086375496
 233772500  0.183132032  0.031474288
 238022000  0.139552272 -0.181373104
 242271500  0.001958933  0.001389916
 246521000  0.220630032 -0.036614548
 250770500  0.051635844 -0.132754384
 255020000  0.132745776  0.065574460
 259269500  0.259962656 -0.105122384
 263519000  0.084734600 -0.125417960
 267768500  0.204520096 -0.029323044
 272018000  0.224672400 -0.191767168
 276267500  0.063954948 -0.211683808
 280517000  0.070724360 -0.036996676
 284766500  0.205479344 -0.145811264
 289016000  0.008412880 -0.174012912
 293265500  0.127485960  0.003587335
 297515000  0.231552272  0.000000000
 301764500  0.230625568  0.000000000
 306014000  0.231696496  0.000000000
 310263500  0.235039328  0.000000000
 314513000  0.233756896  0.000000000
 318762500  0.233303856  0.000000000
 323012000  0.233422448  0.000000000
 327261500  0.237842464  0.000000000
 331511000  0.238837600  0.000000000
 335760500  0.234044848  0.000000000
 340010000  0.249019504  0.000000000
 344259500  0.260989872  0.000000000
 348509000  0.246714368  0.000000000
 352758500  0.237984432  0.000000000
 357008000  0.235547008  0.000000000
 361257500  0.233286976  0.000000000
 365507000  0.235869536  0.000000000
 369756500  0.232039776  0.000000000
 374006000  0.235737184  0.000000000
 378255500  0.235418736  0.000000000
 382505000  0.226622080  0.000000000
 386754500  0.283765216  0.000000000
 391004000  0.399877504  0.000000000
 395253500  0.483570112  0.000000000
 399503000  0.527892768  0.000000000
 403752500  0.557272576  0.000000000
 408002000  0.577099136  0.000000000
 412251500  0.609128960  0.000000000
 416501000  0.647847040  0.000000000
 420750500  0.670204736  0.000000000
 425000000  0.681268224  0.000000000
