!File created by NanoVNA
# Hz S RI R 50
     50000  0.662078784 -0.004486650
   4299500  0.185769600  0.000000000
   8549000  0.164775856  0.000000000
  12798500  0.177890176  0.000000000
  17048000  0.199494144  0.000000000
  21297500  0.184075264  0.000000000
  25547000  0.190910272  0.000000000
  29796500  0.199453232  0.000000000
  34046000  0.202851824  0.000000000
  38295500  0.206337520  0.000000000
  42545000  0.198564688  0.000000000
  46794500  0.187820224  0.000000000
  51044000  0.175043456  0.000000000
  55293500  0.175059248  0.000000000
  59543000  0.174339104  0.000000000
  63792500  0.166249872  0.000000000
  68042000  0.178886976  0.000000000
  72291500  0.189141360  0.000000000
  76541000  0.186080560  0.000000000
  80790500  0.183145456  0.000000000
  85040000  0.178684336  0.000000000
  89289500  0.180560432  0.000000000
  93539000  0.174083456  0.000000000
  97788500  0.166504480  0.000000000
 102038000  0.175446720  0.000000000
 106287500  0.176984368  0.000000000
 110537000  0.177624928  0.000000000
 114786500  0.185146544  0.000000000
 119036000  0.185923584  0.000000000
 123285500  0.188019904  0.000000000
 127535000  0.187993168  0.000000000
 131784500  0.184023824  0.000000000
 136034000  0.186790688  0.000000000
 140283500  0.194352128  0.000000000
 144533000  0.199075568  0.000000000
 148782500  0.198108976  0.000000000
 153032000  0.201393856  0.000000000
 157281500  0.208386400  0.000000000
 161531000  0.212010288  0.000000000
 165780500  0.214892288  0.000000000
 170030000  0.214391408  0.000000000
 174279500  0.216535952  0.000000000
 178529000  0.219383648  0.000000000
 182778500  0.216897680  0.000000000
 187028000  0.221455824  0.000000000
 191277500  0.225312464  0.000000000
 195527000  0.223713472  0.000000000
 199776500  0.226194640  0.000000000
 204026000  0.225911344  0.000000000
 208275500  0.225575792  0.000000000
 212525000  0.225593680  0.000000000
 216774500  0.221780912  0.000000000
 221024000  0.222095088  0.000000000
 225273500  0.223859648  0.000000000
 229523000  0.225964992  0.000000000
 233772500  0.230024736  0.000000000
 238022000  0.231952672  0.000000000
 242271500  0.230532000  0.000000000
 246521000  0.225183360  0.000000000
 250770500  0.224204816  0.000000000
 255020000  0.226759728  0.000000000
 259269500  0.225829264  0.000000000
 263519000  0.226649520  0.000000000
 267768500  0.225558464  0.000000000
 272018000  0.224617872  0.000000000
 276267500  0.228269936  0.000000000
 280517000  0.229463696  0.000000000
 284766500  0.231150576  0.000000000
 289016000  0.231331856  0.000000000
 293265500  0.230306736  0.000000000
 297515000  0.232784544  0.000000000
 301764500  0.231522336  0.000000000
 306014000  0.232264304  0.000000000
 310263500  0.235346704  0.000000000
 314513000  0.233705824  0.000000000
 318762500  0.233210384  0.000000000
 323012000  0.233139792  0.000000000
 327261500  0.237071728  0.000000000
 331511000  0.237866048  0.000000000
 335760500  0.233388656  0.000000000
 340010000  0.250563712  0.000000000
 344259500  0.265632960  0.000000000
 348509000  0.251731184  0.000000000
 352758500  0.241903312  0.000000000
 357008000  0.239262960  0.000000000
 361257500  0.236577904  0.000000000
 365507000  0.238954960  0.000000000
 369756500  0.234986336  0.000000000
 374006000  0.237918544  0.000000000
 378255500  0.237950992  0.000000000
 382505000  0.228751008  0.000000000
 386754500  0.283282176  0.000000000
 391004000  0.398301728  0.000000000
 395253500  0.482684864  0.000000000
 399503000  0.527836992  0.000000000
 403752500  0.558179456  0.000000000
 408002000  0.577330304  0.000000000
 412251500  0.607655552  0.000000000
 416501000  0.646510656  0.000000000
 420750500  0.671364544  0.000000000
 425000000  0.686403328  0.000000000
