!File created by NanoVNA
# Hz S RI R 50
     50000  0.662068672 -0.004508896
   4299500 -0.293485312 -0.592065792
   8549000  0.319601152  0.455594944
  12798500  0.500520000 -0.269595104
  17048000 -0.444671328  0.038472584
  21297500  0.467045024  0.228639680
  25547000  0.293024864 -0.390396960
  29796500 -0.070008728  0.356112256
  34046000  0.404365856 -0.105295192
  38295500  0.189994032 -0.337521376
  42545000  0.011238460  0.232441616
  46794500  0.435918176 -0.054924140
  51044000 -0.040640436 -0.298149152
  55293500  0.187473056  0.276051456
  59543000  0.402636896 -0.195357072
  63792500 -0.166972176 -0.170680592
  68042000  0.330335104  0.151384160
  72291500  0.276772864 -0.318072352
  76541000 -0.137368880  0.064787276
  80790500  0.324936320  0.009826023
  85040000  0.100199960 -0.311184736
  89289500 -0.020003860  0.040063744
  93539000  0.241693616 -0.020908730
  97788500  0.022178988 -0.189341040
 102038000 -0.010128776  0.015309572
 106287500  0.230668144  0.020079428
 110537000 -0.031691928 -0.152025664
 114786500  0.100759808  0.217999312
 119036000  0.298491616 -0.071007112
 123285500  0.043412060 -0.080881168
 127535000  0.220369728  0.095480832
 131784500  0.251211648 -0.172326624
 136034000 -0.003839392 -0.052553600
 140283500  0.304718080  0.031456686
 144533000  0.171955152 -0.294209216
 148782500 -0.034365472  0.054971640
 153032000  0.200230256  0.000000000
 157281500  0.207003504  0.000000000
 161531000  0.210544112  0.000000000
 165780500  0.213316512  0.000000000
 170030000  0.212847616  0.000000000
 174279500  0.214983888  0.000000000
 178529000  0.217781904  0.000000000
 182778500  0.215316464  0.000000000
 187028000  0.219785312  0.000000000
 191277500  0.223662048  0.000000000
 195527000  0.222034512  0.000000000
 199776500  0.224442464  0.000000000
 204026000  0.224324448  0.000000000
 208275500  0.224086352  0.000000000
 212525000  0.224288400  0.000000000
 216774500  0.220722208  0.000000000
 221024000  0.221176368  0.000000000
 225273500  0.223189056  0.000000000
 229523000  0.225342400  0.000000000
 233772500  0.229446000  0.000000000
 238022000  0.231463456  0.000000000
 242271500  0.229870752  0.000000000
 246521000  0.224506048  0.000000000
 250770500  0.223402560  0.000000000
 255020000  0.225769840  0.000000000
 259269500  0.224905264  0.000000000
 263519000  0.225566576  0.000000000
 267768500  0.224423952  0.000000000
 272018000  0.223515680  0.000000000
 276267500  0.227076112  0.000000000
 280517000  0.228267632  0.000000000
 284766500  0.229697424  0.000000000
 289016000  0.229912048  0.000000000
 293265500  0.229058912  0.000000000
 297515000  0.231462224  0.000000000
 301764500  0.230629744  0.000000000
 306014000  0.231520592  0.000000000
 310263500  0.234784960  0.000000000
 314513000  0.233638432  0.000000000
 318762500  0.232832544  0.000000000
 323012000  0.233249776  0.000000000
 327261500  0.237770416  0.000000000
 331511000  0.238777360  0.000000000
 335760500  0.234970160  0.000000000
 340010000  0.246835488  0.000000000
 344259500  0.254213600  0.000000000
 348509000  0.242412224  0.000000000
 352758500  0.237350848  0.000000000
 357008000  0.234947344  0.000000000
 361257500  0.233191072  0.000000000
 365507000  0.235283776  0.000000000
 369756500  0.231389264  0.000000000
 374006000  0.236694752  0.000000000
 378255500  0.234913392  0.000000000
 382505000  0.228041984  0.000000000
 386754500  0.293688096  0.000000000
 391004000  0.411738976  0.000000000
 395253500  0.490010496  0.000000000
 399503000  0.531221216  0.000000000
 403752500  0.558888704  0.000000000
 408002000  0.577891840  0.000000000
 412251500  0.611303104  0.000000000
 416501000  0.649476544  0.000000000
 420750500  0.670162112  0.000000000
 425000000  0.681433408  0.000000000
