!File created by NanoVNA
# Hz S RI R 50
     50000  0.999897600 -0.019047596
   3549500 -0.108906872 -0.882848192
   7049000 -0.234513776  0.684937152
  10548500  0.808339840  0.230005744
  14048000  0.383753344 -0.677992128
  17547500 -0.501942880  0.247154832
  21047000  0.589918336  0.450541920
  24546500  0.629683584 -0.345857120
  28046000 -0.415891168 -0.226565696
  31545500  0.385332480  0.496560640
  35045000  0.333109600 -0.033518750
  38544500  0.148327936 -0.523749536
  42044000 -0.158937392  0.329518656
  45543500  0.578203264  0.161890960
  49043000  0.361963872 -0.482388128
  52542500 -0.286816160 -0.045651696
  56042000  0.402644384  0.386953440
  59541500  0.580639552 -0.273729792
  63041000 -0.143076096 -0.337455008
  66540500  0.125835584  0.376031200
  70040000  0.592510016 -0.085617360
  73539500  0.079984392 -0.481093024
  77039000 -0.073484752  0.262224816
  80538500  0.426993984  0.014087266
  84038000  0.227584304 -0.351058720
  87537500 -0.058040600  0.044776856
  91037000  0.126546232 -0.131800352
  94536500  0.241656608  0.122106064
  98036000  0.180500304 -0.208163216
 101535500 -0.121730792 -0.084980256
 105035000  0.146171600  0.281885024
 108534500  0.317388672 -0.153268272
 112034000 -0.168287328 -0.059766428
 115533500  0.110042504  0.405885344
 119033000  0.470180288  0.051612204
 122532500  0.139038928 -0.156581232
 126032000  0.034299044  0.189332880
 129531500  0.463492288  0.160170848
 133031000  0.285059168 -0.231560192
 136530500 -0.015237818  0.013426631
 140030000  0.331456192  0.243367024
 143529500  0.468256832 -0.197263952
 147029000 -0.030332670 -0.248643568
 150528500  0.099300552  0.251923264
 154028000  0.450092704 -0.048763424
 157527500  0.124337736 -0.241567088
 161027000 -0.056357136  0.099726192
 164526500  0.381386080  0.170875856
 168026000  0.346862336 -0.275411584
 171525500 -0.135520384 -0.137498784
 175025000  0.155075312  0.278504864
 178524500  0.443401440 -0.068977048
 182024000  0.039963300 -0.302130272
 185523500 -0.073981544  0.186740912
 189023000  0.371950432  0.130922672
 192522500  0.198457552 -0.249805376
 196022000 -0.108477808  0.094203568
 199521500  0.317911104  0.232152208
 203021000  0.376690720 -0.166450832
 206520500 -0.044207824 -0.186969920
 210020000  0.061447600  0.229259536
 213519500  0.357238368  0.009210563
 217019000  0.073309752 -0.178952016
 220518500  0.004591946  0.147158096
 224018000  0.260726032  0.108601544
 227517500  0.196133440 -0.065616092
 231017000  0.025899086  0.017046386
 234516500  0.174334160  0.210427792
 238016000  0.328218880 -0.016211934
 241515500  0.049168776 -0.092445160
 245015000  0.065296708  0.204154960
 248514500  0.312465312  0.108447520
 252014000  0.138526528 -0.056746868
 255513500  0.065140300  0.193493616
 259013000  0.335623712  0.216275408
 262512500  0.324476576 -0.032560520
 266012000  0.146733648  0.064590788
 269511500  0.320701920  0.157816880
 273011000  0.388851424 -0.040633412
 276510500  0.232010704 -0.123219352
 280010000  0.095394712 -0.021244156
 283509500  0.220732752  0.135053680
 287009000  0.333156832 -0.058281104
 290508500  0.069571184 -0.077018832
 294008000  0.143536864  0.182231840
 297507500  0.883436480  0.000000000
 301007000  0.882822080  0.000000000
 304506500  0.884195072  0.000000000
 308006000  0.895585600  0.000000000
 311505500  0.921899840  0.000000000
 315005000  0.958762688  0.000000000
 318504500  0.989795264  0.000000000
 322004000  1.005565286  0.000000000
 325503500  1.023974180  0.000000000
 329003000  1.032740354  0.000000000
 332502500  1.020271420  0.000000000
 336002000  1.012677550  0.000000000
 339501500  1.010259271  0.000000000
 343001000  1.006109596  0.000000000
 346500500  1.012529969  0.000000000
 350000000  1.026068806  0.000000000
