!File created by NanoVNA
# Hz S RI R 50
     50000  0.999760576 -0.018678998
   3549500 -0.109346304 -0.882972032
   7049000 -0.235771392  0.686004160
  10548500  0.799448832  0.213613040
  14048000  0.384642304 -0.678288960
  17547500 -0.502131520  0.246425920
  21047000  0.589813440  0.450683904
  24546500  0.629222144 -0.338709056
  28046000 -0.415181408 -0.228494592
  31545500  0.385497888  0.489129728
  35045000  0.392766272  0.021482360
  38544500  0.153078688 -0.562026496
  42044000 -0.136000816  0.332145824
  45543500  0.593785920  0.157604544
  49043000  0.340744320 -0.477649408
  52542500 -0.269720576 -0.023051848
  56042000  0.396903296  0.383236128
  59541500  0.578335936 -0.274970368
  63041000 -0.143858080 -0.334003136
  66540500  0.126698568  0.376802432
  70040000  0.592199040 -0.086274360
  73539500  0.079052528 -0.480398752
  77039000 -0.070601464  0.261630320
  80538500  0.424153536  0.012549303
  84038000  0.233408816 -0.346695776
  87537500 -0.053366008  0.038908720
  91037000  0.122465072 -0.132694912
  94536500  0.237670208  0.124082656
  98036000  0.183869216 -0.205653232
 101535500 -0.123057176 -0.094210864
 105035000  0.144760736  0.281466112
 108534500  0.319833824 -0.152748000
 112034000 -0.168197376 -0.059890736
 115533500  0.109857456  0.405934080
 119033000  0.470292160  0.051509168
 122532500  0.139282176 -0.157276768
 126032000  0.034090184  0.189099168
 129531500  0.463367616  0.160620032
 133031000  0.285163968 -0.231299920
 136530500 -0.014607223  0.012391289
 140030000  0.331395456  0.243229968
 143529500  0.468285984 -0.196976624
 147029000 -0.030303632 -0.248337408
 150528500  0.099329280  0.251875408
 154028000  0.450147680 -0.048827988
 157527500  0.123915776 -0.241197184
 161027000 -0.056322148  0.099452848
 164526500  0.381160928  0.170957856
 168026000  0.346836480 -0.275430720
 171525500 -0.135552960 -0.137570880
 175025000  0.154975408  0.278659776
 178524500  0.443434272 -0.068939400
 182024000  0.041096264 -0.302767008
 185523500 -0.074064568  0.186931344
 189023000  0.372094816  0.130932944
 192522500  0.198380880 -0.249870576
 196022000 -0.108524736  0.094323864
 199521500  0.318033920  0.232302032
 203021000  0.376484704 -0.166437728
 206520500 -0.044172200 -0.186614848
 210020000  0.061468912  0.229066528
 213519500  0.357011136  0.009349803
 217019000  0.073664024 -0.178932336
 220518500  0.004334541  0.147087584
 224018000  0.260880208  0.108847088
 227517500  0.196047744 -0.065765052
 231017000  0.026052806  0.017158230
 234516500  0.174235984  0.210464560
 238016000  0.328248832 -0.016131107
 241515500  0.049137924 -0.092433232
 245015000  0.065324464  0.204175904
 248514500  0.312490816  0.108427816
 252014000  0.138491664 -0.056839484
 255513500  0.175076992  0.000000000
 259013000  0.195929952  0.000000000
 262512500  0.365521152  0.000000000
 266012000  0.528321376  0.000000000
 269511500  0.592726592  0.000000000
 273011000  0.633397568  0.000000000
 276510500  0.682292032  0.000000000
 280010000  0.754235968  0.000000000
 283509500  0.818638848  0.000000000
 287009000  0.848445376  0.000000000
 290508500  0.874046592  0.000000000
 294008000  0.886553792  0.000000000
 297507500  0.882783104  0.000000000
 301007000  0.882176000  0.000000000
 304506500  0.883429504  0.000000000
 308006000  0.894519360  0.000000000
 311505500  0.920385984  0.000000000
 315005000  0.956749248  0.000000000
 318504500  0.987251200  0.000000000
 322004000  1.002518416  0.000000000
 325503500  1.020449638  0.000000000
 329003000  1.028727770  0.000000000
 332502500  1.015864372  0.000000000
 336002000  1.007944703  0.000000000
 339501500  1.005247474  0.000000000
 343001000  1.001034021  0.000000000
 346500500  1.007608414  0.000000000
 350000000  1.021492720  0.000000000
