!File created by NanoVNA
# Hz S RI R 50
     50000  0.999497856 -0.018682528
   3549500 -0.108965624 -0.883125952
   7049000 -0.234578768  0.685485120
  10548500  0.808742016  0.230172752
  14048000  0.381309440 -0.678106624
  17547500 -0.501797792  0.246943632
  21047000  0.589690624  0.450488128
  24546500  0.630253888 -0.347209792
  28046000 -0.415423296 -0.229757520
  31545500  0.384957920  0.496758400
  35045000  0.383828000 -0.007471649
  38544500  0.138255968 -0.521114656
  42044000 -0.140358656  0.330067232
  45543500  0.576480384  0.161843312
  49043000  0.346256288 -0.468468992
  52542500 -0.282813440 -0.047803228
  56042000  0.400138528  0.385340480
  59541500  0.580569600 -0.273218560
  63041000 -0.141556048 -0.335350592
  66540500  0.125835000  0.376430080
  70040000  0.592666432 -0.085614328
  73539500  0.080291320 -0.480848320
  77039000 -0.073757480  0.260767408
  80538500  0.426507712  0.014885106
  84038000  0.227358832 -0.352379328
  87537500 -0.060181724  0.043729996
  91037000  0.127019808 -0.131252784
  94536500  0.242940672  0.121965216
  98036000  0.181716448 -0.211265568
 101535500 -0.128311992 -0.089089056
 105035000  0.145908464  0.282082816
 108534500  0.317335552 -0.152956656
 112034000 -0.168626560 -0.059969144
 115533500  0.109861688  0.406195872
 119033000  0.470334272  0.051423276
 122532500  0.139081568 -0.156665136
 126032000  0.034231140  0.189124368
 129531500  0.463638464  0.160297184
 133031000  0.196850512  0.000000000
 136530500  0.200509488  0.000000000
 140030000  0.199220160  0.000000000
 143529500  0.197178960  0.000000000
 147029000  0.195491632  0.000000000
 150528500  0.195189312  0.000000000
 154028000  0.202727296  0.000000000
 157527500  0.207569584  0.000000000
 161027000  0.210920672  0.000000000
 164526500  0.205866336  0.000000000
 168026000  0.197700976  0.000000000
 171525500  0.202395600  0.000000000
 175025000  0.201113120  0.000000000
 178524500  0.197159040  0.000000000
 182024000  0.196419600  0.000000000
 185523500  0.192964640  0.000000000
 189023000  0.197118176  0.000000000
 192522500  0.194866704  0.000000000
 196022000  0.190398272  0.000000000
 199521500  0.192602832  0.000000000
 203021000  0.187252752  0.000000000
 206520500  0.188663088  0.000000000
 210020000  0.190680816  0.000000000
 213519500  0.184623360  0.000000000
 217019000  0.187320304  0.000000000
 220518500  0.190025856  0.000000000
 224018000  0.190244816  0.000000000
 227517500  0.195742480  0.000000000
 231017000  0.206896112  0.000000000
 234516500  0.205709072  0.000000000
 238016000  0.189327936  0.000000000
 241515500  0.194421392  0.000000000
 245015000  0.194421776  0.000000000
 248514500  0.184761760  0.000000000
 252014000  0.197653024  0.000000000
 255513500  0.175856352  0.000000000
 259013000  0.196690480  0.000000000
 262512500  0.366281760  0.000000000
 266012000  0.529131168  0.000000000
 269511500  0.593645824  0.000000000
 273011000  0.634528064  0.000000000
 276510500  0.683695168  0.000000000
 280010000  0.755917248  0.000000000
 283509500  0.820512320  0.000000000
 287009000  0.850347968  0.000000000
 290508500  0.875819712  0.000000000
 294008000  0.887985600  0.000000000
 297507500  0.883681216  0.000000000
 301007000  0.882457536  0.000000000
 304506500  0.883038976  0.000000000
 308006000  0.893483264  0.000000000
 311505500  0.918832064  0.000000000
 315005000  0.954822272  0.000000000
 318504500  0.985113408  0.000000000
 322004000  1.000341773  0.000000000
 325503500  1.018432498  0.000000000
 329003000  1.027070046  0.000000000
 332502500  1.014729619  0.000000000
 336002000  1.007508874  0.000000000
 339501500  1.005639076  0.000000000
 343001000  1.002283931  0.000000000
 346500500  1.009700656  0.000000000
 350000000  1.024350524  0.000000000
