!File created by NanoVNA
# Hz S RI R 50
     50000  0.662032640 -0.004572442
   4299500 -0.289987840 -0.594187968
   8549000  0.320506080  0.455853024
  12798500  0.500154912 -0.266305184
  17048000 -0.444544128  0.038430320
  21297500  0.468477856  0.226883680
  25547000  0.283961248 -0.397692128
  29796500 -0.056503684  0.363689824
  34046000  0.420408992 -0.105275328
  38295500  0.127262696 -0.293997440
  42545000  0.050292696  0.225026256
  46794500  0.436262080 -0.067633440
  51044000 -0.092697664 -0.286742944
  55293500  0.235545008  0.272173760
  59543000  0.389218592 -0.225438304
  63792500 -0.192425872 -0.120016456
  68042000  0.353549216  0.133246240
  72291500  0.262610112 -0.335614528
  76541000 -0.141987936  0.088935096
  80790500  0.342548128  0.002939267
  85040000  0.097435600 -0.324911136
  89289500 -0.031606268  0.066075280
  93539000  0.251871792 -0.027548434
  97788500  0.014622465 -0.202720320
 102038000  0.006558757  0.033520776
 106287500  0.217351920  0.022087994
 110537000 -0.022823840 -0.150951792
 114786500  0.097748760  0.211183664
 119036000  0.294067744 -0.066925056
 123285500  0.046532136 -0.075679904
 127535000  0.231456960  0.089955880
 131784500  0.231605344 -0.186812944
 136034000  0.005713384 -0.009560797
 140283500  0.326018080 -0.008875760
 144533000  0.118934936 -0.294565632
 148782500  0.019270654  0.094514560
 153032000  0.298384384 -0.130903584
 157281500  0.211179552  0.000000000
 161531000  0.214599712  0.000000000
 165780500  0.217285424  0.000000000
 170030000  0.216514352  0.000000000
 174279500  0.218357584  0.000000000
 178529000  0.220929664  0.000000000
 182778500  0.218050144  0.000000000
 187028000  0.222316256  0.000000000
 191277500  0.225824384  0.000000000
 195527000  0.223814800  0.000000000
 199776500  0.225997568  0.000000000
 204026000  0.225316416  0.000000000
 208275500  0.224733952  0.000000000
 212525000  0.224576352  0.000000000
 216774500  0.220563632  0.000000000
 221024000  0.220916448  0.000000000
 225273500  0.222643632  0.000000000
 229523000  0.224841920  0.000000000
 233772500  0.229222560  0.000000000
 238022000  0.231375392  0.000000000
 242271500  0.230304016  0.000000000
 246521000  0.225290944  0.000000000
 250770500  0.224729664  0.000000000
 255020000  0.227769424  0.000000000
 259269500  0.227092288  0.000000000
 263519000  0.228362576  0.000000000
 267768500  0.227663152  0.000000000
 272018000  0.226954304  0.000000000
 276267500  0.230925648  0.000000000
 280517000  0.232167120  0.000000000
 284766500  0.233961632  0.000000000
 289016000  0.234146400  0.000000000
 293265500  0.232970640  0.000000000
 297515000  0.235589376  0.000000000
 301764500  0.234175232  0.000000000
 306014000  0.234821344  0.000000000
 310263500  0.237848576  0.000000000
 314513000  0.235912496  0.000000000
 318762500  0.235409472  0.000000000
 323012000  0.234737584  0.000000000
 327261500  0.239046560  0.000000000
 331511000  0.241623408  0.000000000
 335760500  0.236721232  0.000000000
 340010000  0.254157568  0.000000000
 344259500  0.271929632  0.000000000
 348509000  0.257307920  0.000000000
 352758500  0.244791024  0.000000000
 357008000  0.241981616  0.000000000
 361257500  0.239448960  0.000000000
 365507000  0.241546400  0.000000000
 369756500  0.237448016  0.000000000
 374006000  0.239533552  0.000000000
 378255500  0.239136624  0.000000000
 382505000  0.229222208  0.000000000
 386754500  0.281168448  0.000000000
 391004000  0.395460352  0.000000000
 395253500  0.482354688  0.000000000
 399503000  0.529058336  0.000000000
 403752500  0.560011136  0.000000000
 408002000  0.580340864  0.000000000
 412251500  0.611032192  0.000000000
 416501000  0.649864768  0.000000000
 420750500  0.673902656  0.000000000
 425000000  0.686771712  0.000000000
