!File created by NanoVNA
# Hz S RI R 50
     50000  0.999694912 -0.018715044
   3549500 -0.109141264 -0.882816192
   7049000 -0.237380288  0.687823872
  10548500  0.801824448  0.224921776
  14048000  0.385723648 -0.678522688
  17547500 -0.502038304  0.246301152
  21047000  0.590243584  0.450509952
  24546500  0.629230784 -0.340741280
  28046000 -0.415026304 -0.226020208
  31545500  0.389442464  0.489674656
  35045000  0.305322016 -0.045785164
  38544500  0.154107696 -0.563298496
  42044000 -0.155919248  0.334578912
  45543500  0.595646848  0.162878720
  49043000  0.361195776 -0.482915744
  52542500 -0.270750688 -0.018634618
  56042000  0.403799520  0.384325536
  59541500  0.579851008 -0.275677760
  63041000 -0.143033536 -0.336545888
  66540500  0.126996008  0.377296224
  70040000  0.592868992 -0.085958520
  73539500  0.079443528 -0.481329440
  77039000 -0.072058240  0.261909568
  80538500  0.424141792  0.010756430
  84038000  0.226907584 -0.347305248
  87537500 -0.054647752  0.043784516
  91037000  0.121802376 -0.133745192
  94536500  0.240664432  0.122148376
  98036000  0.179320080 -0.205155888
 101535500 -0.127732944 -0.089101528
 105035000  0.141017440  0.275890240
 108534500  0.317842240 -0.152835328
 112034000 -0.168167488 -0.059859056
 115533500  0.109858464  0.405994624
 119033000  0.470328224  0.051797484
 122532500  0.139331520 -0.157065008
 126032000  0.034458500  0.188803568
 129531500  0.463447840  0.160068608
 133031000  0.284879072 -0.231334528
 136530500 -0.014396252  0.012644955
 140030000  0.199312320  0.000000000
 143529500  0.197399472  0.000000000
 147029000  0.195809136  0.000000000
 150528500  0.195500640  0.000000000
 154028000  0.202952368  0.000000000
 157527500  0.207665024  0.000000000
 161027000  0.210821152  0.000000000
 164526500  0.205590688  0.000000000
 168026000  0.197248368  0.000000000
 171525500  0.201759088  0.000000000
 175025000  0.200357744  0.000000000
 178524500  0.196314336  0.000000000
 182024000  0.195553984  0.000000000
 185523500  0.192156560  0.000000000
 189023000  0.196408576  0.000000000
 192522500  0.194335488  0.000000000
 196022000  0.190060128  0.000000000
 199521500  0.192467040  0.000000000
 203021000  0.187347952  0.000000000
 206520500  0.188930656  0.000000000
 210020000  0.191104160  0.000000000
 213519500  0.185173408  0.000000000
 217019000  0.187893488  0.000000000
 220518500  0.190579072  0.000000000
 224018000  0.190753856  0.000000000
 227517500  0.196212896  0.000000000
 231017000  0.207355712  0.000000000
 234516500  0.206137232  0.000000000
 238016000  0.189715120  0.000000000
 241515500  0.194726496  0.000000000
 245015000  0.194602512  0.000000000
 248514500  0.184838992  0.000000000
 252014000  0.197631056  0.000000000
 255513500  0.175786160  0.000000000
 259013000  0.196643200  0.000000000
 262512500  0.366242464  0.000000000
 266012000  0.529089856  0.000000000
 269511500  0.593595328  0.000000000
 273011000  0.634409920  0.000000000
 276510500  0.683430464  0.000000000
 280010000  0.755463104  0.000000000
 283509500  0.819919360  0.000000000
 287009000  0.849659968  0.000000000
 290508500  0.875064896  0.000000000
 294008000  0.887294336  0.000000000
 297507500  0.883170496  0.000000000
 301007000  0.882158208  0.000000000
 304506500  0.882973312  0.000000000
 308006000  0.893628992  0.000000000
 311505500  0.919115648  0.000000000
 315005000  0.955178304  0.000000000
 318504500  0.985502464  0.000000000
 322004000  1.000731349  0.000000000
 325503500  1.018769622  0.000000000
 329003000  1.027294398  0.000000000
 332502500  1.014778137  0.000000000
 336002000  1.007329107  0.000000000
 339501500  1.005202651  0.000000000
 343001000  1.001556635  0.000000000
 346500500  1.008675814  0.000000000
 350000000  1.023069382  0.000000000
