!File created by NanoVNA
# Hz S RI R 50
     50000  0.999754688 -0.019140876
   3549500 -0.109084600 -0.882905216
   7049000 -0.237425344  0.687714112
  10548500  0.808245184  0.229793216
  14048000  0.385863040 -0.677930624
  17547500 -0.501919264  0.246794032
  21047000  0.590466688  0.450613344
  24546500  0.629222656 -0.344398688
  28046000 -0.415164992 -0.225948352
  31545500  0.388280928  0.491144704
  35045000  0.302872896 -0.050871412
  38544500  0.151525760 -0.545876224
  42044000 -0.155494176  0.334771936
  45543500  0.595543808  0.162390880
  49043000  0.362384480 -0.483144864
  52542500 -0.270784960 -0.021699544
  56042000  0.403919008  0.384237024
  59541500  0.579934656 -0.275901632
  63041000 -0.142991152 -0.336994656
  66540500  0.126998080  0.376894368
  70040000  0.592993344 -0.085861432
  73539500  0.078972696 -0.481754816
  77039000 -0.072551152  0.262086176
  80538500  0.423800704  0.010799325
  84038000  0.226604112 -0.347278688
  87537500  0.187054592  0.000000000
  91037000  0.189013152  0.000000000
  94536500  0.197021312  0.000000000
  98036000  0.195422496  0.000000000
 101535500  0.192587968  0.000000000
 105035000  0.195590848  0.000000000
 108534500  0.200455248  0.000000000
 112034000  0.195002000  0.000000000
 115533500  0.192847856  0.000000000
 119033000  0.193957488  0.000000000
 122532500  0.188286208  0.000000000
 126032000  0.193410928  0.000000000
 129531500  0.197378768  0.000000000
 133031000  0.195117456  0.000000000
 136530500  0.199085392  0.000000000
 140030000  0.197968688  0.000000000
 143529500  0.195932464  0.000000000
 147029000  0.194099104  0.000000000
 150528500  0.193525168  0.000000000
 154028000  0.200688192  0.000000000
 157527500  0.205079888  0.000000000
 161027000  0.207936240  0.000000000
 164526500  0.202368656  0.000000000
 168026000  0.193694496  0.000000000
 171525500  0.197906000  0.000000000
 175025000  0.196162512  0.000000000
 178524500  0.191786112  0.000000000
 182024000  0.190728656  0.000000000
 185523500  0.187115024  0.000000000
 189023000  0.191304336  0.000000000
 192522500  0.189309664  0.000000000
 196022000  0.185318512  0.000000000
 199521500  0.188190192  0.000000000
 203021000  0.183622320  0.000000000
 206520500  0.185814800  0.000000000
 210020000  0.188519232  0.000000000
 213519500  0.182999648  0.000000000
 217019000  0.186026896  0.000000000
 220518500  0.188842864  0.000000000
 224018000  0.189053296  0.000000000
 227517500  0.194498464  0.000000000
 231017000  0.205578752  0.000000000
 234516500  0.204380096  0.000000000
 238016000  0.188051200  0.000000000
 241515500  0.193169840  0.000000000
 245015000  0.193144272  0.000000000
 248514500  0.183358992  0.000000000
 252014000  0.196013008  0.000000000
 255513500  0.173989776  0.000000000
 259013000  0.194668192  0.000000000
 262512500  0.364195456  0.000000000
 266012000  0.527116896  0.000000000
 269511500  0.591798976  0.000000000
 273011000  0.632861568  0.000000000
 276510500  0.682106560  0.000000000
 280010000  0.754262912  0.000000000
 283509500  0.818752192  0.000000000
 287009000  0.848467200  0.000000000
 290508500  0.873863040  0.000000000
 294008000  0.886179328  0.000000000
 297507500  0.882288128  0.000000000
 301007000  0.881705856  0.000000000
 304506500  0.883155136  0.000000000
 308006000  0.894614016  0.000000000
 311505500  0.920975552  0.000000000
 315005000  0.957844160  0.000000000
 318504500  0.988879552  0.000000000
 322004000  1.004709244  0.000000000
 325503500  1.023135542  0.000000000
 329003000  1.031821608  0.000000000
 332502500  1.019242168  0.000000000
 336002000  1.011460423  0.000000000
 339501500  1.008770943  0.000000000
 343001000  1.004370809  0.000000000
 346500500  1.010583997  0.000000000
 350000000  1.024040102  0.000000000
