!File created by NanoVNA
# Hz S RI R 50
     50000  0.999976384 -0.018695788
   3549500 -0.109374800 -0.883082112
   7049000 -0.234819984  0.685450816
  10548500  0.808857600  0.229861520
  14048000  0.380990016 -0.678172864
  17547500 -0.501917376  0.247082384
  21047000  0.589787520  0.450442240
  24546500  0.629757440 -0.347451424
  28046000 -0.415618240 -0.229633856
  31545500  0.385187200  0.496634272
  35045000  0.382884000 -0.008328314
  38544500  0.134996064 -0.519406976
  42044000 -0.138268112  0.330323680
  45543500  0.576833472  0.161527552
  49043000  0.346448512 -0.469478944
  52542500 -0.279005696 -0.049022104
  56042000  0.398648192  0.384815840
  59541500  0.580792320 -0.273541536
  63041000 -0.141189440 -0.334294592
  66540500  0.126148432  0.375968128
  70040000  0.592470912 -0.086052504
  73539500  0.079919272 -0.480687264
  77039000 -0.073927816  0.260435280
  80538500  0.425684864  0.013911677
  84038000  0.227930624 -0.351192192
  87537500 -0.059799196  0.043094236
  91037000  0.124459544 -0.130816712
  94536500  0.242152384  0.122970400
  98036000  0.180455280 -0.212273360
 101535500 -0.130539672 -0.086422384
 105035000  0.145183632  0.281931904
 108534500  0.317526016 -0.153374928
 112034000 -0.168501120 -0.059505524
 115533500  0.110101064  0.405927168
 119033000  0.470228352  0.051490880
 122532500  0.139027440 -0.156691424
 126032000  0.034438884  0.189268688
 129531500  0.463627872  0.160152784
 133031000  0.285371904 -0.231484784
 136530500 -0.014938922  0.012297087
 140030000  0.331764864  0.243381760
 143529500  0.468159520 -0.197342928
 147029000 -0.030400698 -0.248553408
 150528500  0.099372312  0.251856304
 154028000  0.450153088 -0.048855932
 157527500  0.123790872 -0.241485296
 161027000 -0.056227232  0.099745416
 164526500  0.381380640  0.170792704
 168026000  0.346768064 -0.275429856
 171525500 -0.135495104 -0.137462256
 175025000  0.155048672  0.278524000
 178524500  0.443517664 -0.069032496
 182024000  0.040175432 -0.302106048
 185523500 -0.073961624  0.186926384
 189023000  0.372149856  0.130858688
 192522500  0.198344176 -0.249837072
 196022000 -0.108375720  0.094250176
 199521500  0.318029504  0.232093680
 203021000  0.376437984 -0.166413200
 206520500 -0.043994116 -0.186697056
 210020000  0.061555984  0.228915712
 213519500  0.357055232  0.009348339
 217019000  0.073637320 -0.179030432
 220518500  0.004434262  0.147286896
 224018000  0.260995808  0.108386920
 227517500  0.195970912 -0.065524332
 231017000  0.026121934  0.017048670
 234516500  0.174420448  0.210264496
 238016000  0.328173792 -0.016228789
 241515500  0.049312220 -0.092359368
 245015000  0.065461056  0.204116544
 248514500  0.312532448  0.108588304
 252014000  0.138730400 -0.056958628
 255513500  0.065166340  0.193528736
 259013000  0.335560768  0.216369584
 262512500  0.324590912 -0.032547686
 266012000  0.146850832  0.064571740
 269511500  0.320700096  0.157515264
 273011000  0.388905408 -0.040590464
 276510500  0.232316240 -0.123233488
 280010000  0.095366592 -0.021280538
 283509500  0.220832592  0.135213216
 287009000  0.333138848 -0.058270916
 290508500  0.069587720 -0.077037224
 294008000  0.143714576  0.182177888
 297507500  0.370151072  0.069438064
 301007000  0.198861600 -0.129039688
 304506500  0.068628528  0.099898680
 308006000  0.268807072  0.168448560
 311505500  0.330362912  0.027422846
 315005000  0.197185552 -0.008397833
 318504500  0.244479680  0.143410224
 322004000  0.397538464  0.055544420
 325503500  0.311750976 -0.088049064
 329003000  0.229388400  0.022547264
 332502500  0.370940352  0.013985222
 336002000  0.317575520 -0.153526656
 339501500  0.144490656 -0.069312472
 343001000  1.002216578  0.000000000
 346500500  1.009554386  0.000000000
 350000000  1.024184226  0.000000000
