!File created by NanoVNA
# Hz S RI R 50
     50000  1.000436783 -0.019193530
   4349500 -0.528051072 -0.622627200
   8649000  0.425822272  0.664770176
  12948500  0.697930880 -0.420475776
  17248000 -0.478017504  0.150202848
  21547500  0.661917568  0.287406368
  25847000  0.366343264 -0.579739136
  30146500 -0.116017392  0.492719616
  34446000  0.461760384  0.043529924
  38745500 -0.075689440 -0.472392864
  43045000  0.178250448  0.343860768
  47344500  0.607855552 -0.203563952
  51644000 -0.246324368 -0.102362208
  55943500  0.323047744  0.020904044
  60243000  0.526809504 -0.101047136
  64542500 -0.238106224 -0.150674496
  68842000  0.468359520  0.241654048
  73141500  0.308614848 -0.393333632
  77441000 -0.093871280  0.095520264
  81740500  0.434800800  0.084137704
  86040000  0.219183808 -0.390512672
  90339500 -0.190485120  0.189856608
  94639000  0.516810112  0.004179099
  98938500 -0.044132564 -0.370584288
 103238000  0.044012428  0.355784640
 107537500  0.346707232 -0.205788608
 111837000 -0.211555296 -0.091932048
 116136500  0.272793408  0.358318400
 120436000  0.295384032 -0.280553152
 124735500 -0.190872304  0.150981888
 129035000  0.419618720  0.222816592
 133334500  0.017504950 -0.185261952
 137634000  0.128902512  0.383405888
 141933500  0.537223552  0.026316208
 146233000  0.025891534 -0.088662312
 150532500  0.330566432  0.256537024
 154832000  0.468238048 -0.159192560
 159131500  0.083582976 -0.038593952
 163431000  0.382144704  0.070588080
 167730500  0.312868896 -0.305351616
 172030000  0.006006746 -0.040219576
 176329500  0.292102304  0.033510752
 180629000  0.179929248 -0.270801728
 184928500 -0.055280532  0.020712194
 189228000  0.211547936  0.071222440
 193527500  0.116859600 -0.079083600
 197827000  0.065858996  0.152952240
 202126500  0.394455360  0.063018836
 206426000  0.122247296 -0.252843792
 210725500  0.090519248  0.202661120
 215025000  0.310043840 -0.115921416
 219324500 -0.024486958 -0.002188237
 223624000  0.245692592  0.131142928
 227923500  0.232230880 -0.073658832
 232223000  0.048090812  0.038343288
 236522500  0.331332448  0.094471928
 240822000  0.173548832 -0.214572928
 245121500 -0.022890148  0.099458232
 249421000  0.278740768  0.042190572
 253720500 -0.007507350 -0.042555592
 258020000  0.158932672  0.281947520
 262319500  0.374224800  0.002596279
 266619000  0.057710964  0.013337098
 270918500  0.345949248  0.168178496
 275218000  0.288005536 -0.195510640
 279517500 -0.055168288  0.022448218
 283817000  0.268259824  0.202404992
 288116500  0.189974256 -0.096040640
 292416000  0.075822000  0.213787600
 296715500  0.395625536  0.130535272
 301015000  0.189106704 -0.091481296
 305314500  0.152044720  0.193302192
 309614000  0.390940736  0.106361168
 313913500  0.220309440 -0.074515208
 318213000  0.284600416  0.183044240
 322512500  0.419513792 -0.049653796
 326812000  0.205900480 -0.030504134
 331111500  0.370436832 -0.000649734
 335411000  0.242357824 -0.159323056
 339710500  0.188692432  0.000000000
 344010000  0.192530640  0.000000000
 348309500  0.209048432  0.000000000
 352609000  0.207335520  0.000000000
 356908500  0.193614320  0.000000000
 361208000  0.194652736  0.000000000
 365507500  0.192410208  0.000000000
 369807000  0.191410784  0.000000000
 374106500  0.189030336  0.000000000
 378406000  0.183425856  0.000000000
 382705500  0.192650320  0.000000000
 387005000  0.179199360  0.000000000
 391304500  0.191434240  0.000000000
 395604000  0.322473600  0.000000000
 399903500  0.479764864  0.000000000
 404203000  0.565310208  0.000000000
 408502500  0.614130624  0.000000000
 412802000  0.661570688  0.000000000
 417101500  0.698449152  0.000000000
 421401000  0.707452672  0.000000000
 425700500  0.717035520  0.000000000
 430000000  0.746924672  0.000000000
