!File created by NanoVNA
# Hz S RI R 50
     50000  0.999470528 -0.018979004
   3549500 -0.108993840 -0.882970048
   7049000 -0.237357280  0.687872192
  10548500  0.808196928  0.229837872
  14048000  0.386240096 -0.677199104
  17547500 -0.501857952  0.246894992
  21047000  0.590296320  0.450982592
  24546500  0.627130112 -0.335124832
  28046000 -0.415240128 -0.228944320
  31545500  0.386610752  0.494817152
  35045000  0.301250496 -0.058578524
  38544500  0.149688528 -0.546778816
  42044000 -0.154110336  0.333632096
  45543500  0.591645120  0.161970144
  49043000  0.362204320 -0.482535168
  52542500 -0.271410912 -0.025528986
  56042000  0.403985248  0.384202528
  59541500  0.579622656 -0.275867616
  63041000 -0.144034368 -0.335370912
  66540500  0.125873048  0.375866688
  70040000  0.592690688 -0.084593096
  73539500  0.080193592 -0.482954048
  77039000 -0.074506664  0.262494720
  80538500  0.426671552  0.010860769
  84038000  0.226506592 -0.348103136
  87537500 -0.054684728  0.050031132
  91037000  0.127786416 -0.133885664
  94536500  0.236467632  0.124212968
  98036000  0.176138304 -0.202072304
 101535500 -0.127653200 -0.090305384
 105035000  0.144147136  0.281169280
 108534500  0.317899552 -0.153343888
 112034000 -0.168520992 -0.059671304
 115533500  0.109834544  0.406117376
 119033000  0.470273504  0.051526588
 122532500  0.139320288 -0.157531776
 126032000  0.033832116  0.189248288
 129531500  0.464002656  0.159996976
 133031000  0.284967232 -0.231258400
 136530500 -0.014828746  0.012700660
 140030000  0.197803248  0.000000000
 143529500  0.195639712  0.000000000
 147029000  0.193695728  0.000000000
 150528500  0.192996896  0.000000000
 154028000  0.200074992  0.000000000
 157527500  0.204441296  0.000000000
 161027000  0.207294480  0.000000000
 164526500  0.201759312  0.000000000
 168026000  0.193126880  0.000000000
 171525500  0.197362544  0.000000000
 175025000  0.195637488  0.000000000
 178524500  0.191246896  0.000000000
 182024000  0.190190416  0.000000000
 185523500  0.186630768  0.000000000
 189023000  0.190863728  0.000000000
 192522500  0.188932352  0.000000000
 196022000  0.185020832  0.000000000
 199521500  0.187915792  0.000000000
 203021000  0.183347120  0.000000000
 206520500  0.185515040  0.000000000
 210020000  0.188176192  0.000000000
 213519500  0.182626480  0.000000000
 217019000  0.185629712  0.000000000
 220518500  0.188479920  0.000000000
 224018000  0.188716816  0.000000000
 227517500  0.194143840  0.000000000
 231017000  0.205290800  0.000000000
 234516500  0.204163104  0.000000000
 238016000  0.187868928  0.000000000
 241515500  0.193055360  0.000000000
 245015000  0.193044736  0.000000000
 248514500  0.183273776  0.000000000
 252014000  0.195980944  0.000000000
 255513500  0.173991920  0.000000000
 259013000  0.194683456  0.000000000
 262512500  0.364156672  0.000000000
 266012000  0.527115936  0.000000000
 269511500  0.591894656  0.000000000
 273011000  0.632872448  0.000000000
 276510500  0.682087232  0.000000000
 280010000  0.754293632  0.000000000
 283509500  0.818777472  0.000000000
 287009000  0.848522560  0.000000000
 290508500  0.873740288  0.000000000
 294008000  0.885853568  0.000000000
 297507500  0.881991616  0.000000000
 301007000  0.881237824  0.000000000
 304506500  0.882550528  0.000000000
 308006000  0.894213696  0.000000000
 311505500  0.920681728  0.000000000
 315005000  0.957511360  0.000000000
 318504500  0.988445184  0.000000000
 322004000  1.004093647  0.000000000
 325503500  1.022251606  0.000000000
 329003000  1.030496478  0.000000000
 332502500  1.017717600  0.000000000
 336002000  1.010008693  0.000000000
 339501500  1.007239104  0.000000000
 343001000  1.003003955  0.000000000
 346500500  1.009693027  0.000000000
 350000000  1.023430110  0.000000000
