!File created by NanoVNA
# Hz S RI R 50
     50000  0.999719296 -0.018868070
   3549500 -0.109431496 -0.882922752
   7049000 -0.237209536  0.687819520
  10548500  0.801859264  0.224592448
  14048000  0.385580256 -0.678489344
  17547500 -0.502047136  0.246418208
  21047000  0.590474688  0.450573664
  24546500  0.629272448 -0.340831776
  28046000 -0.415059648 -0.225864592
  31545500  0.389601344  0.489755680
  35045000  0.305824896 -0.046240288
  38544500  0.153984240 -0.563113920
  42044000 -0.155798160  0.334586848
  45543500  0.595790656  0.162760608
  49043000  0.361099552 -0.482925408
  52542500 -0.270824672 -0.018176720
  56042000  0.403864480  0.384211680
  59541500  0.579846464 -0.275877536
  63041000 -0.143200576 -0.335984512
  66540500  0.126740840  0.376860000
  70040000  0.592976960 -0.086088640
  73539500  0.079302520 -0.481067360
  77039000 -0.071809392  0.261529680
  80538500  0.424390816  0.010867245
  84038000  0.226848688 -0.346849600
  87537500 -0.053985808  0.042668120
  91037000  0.120502256 -0.133330408
  94536500  0.239094160  0.123206344
  98036000  0.179223504 -0.205958720
 101535500 -0.128063216 -0.095764376
 105035000  0.140672224  0.275656096
 108534500  0.318090400 -0.153075808
 112034000 -0.168293632 -0.059686288
 115533500  0.110101816  0.405943648
 119033000  0.470441376  0.051586876
 122532500  0.138973856 -0.156712080
 126032000  0.034503840  0.188863936
 129531500  0.463507488  0.159850992
 133031000  0.196254560  0.000000000
 136530500  0.200500000  0.000000000
 140030000  0.199593808  0.000000000
 143529500  0.197752384  0.000000000
 147029000  0.196027792  0.000000000
 150528500  0.195396992  0.000000000
 154028000  0.202427104  0.000000000
 157527500  0.206535792  0.000000000
 161027000  0.208976176  0.000000000
 164526500  0.202995632  0.000000000
 168026000  0.193860032  0.000000000
 171525500  0.197664896  0.000000000
 175025000  0.195661968  0.000000000
 178524500  0.191069536  0.000000000
 182024000  0.189871504  0.000000000
 185523500  0.186195520  0.000000000
 189023000  0.190358208  0.000000000
 192522500  0.188409072  0.000000000
 196022000  0.184524944  0.000000000
 199521500  0.187576736  0.000000000
 203021000  0.183276784  0.000000000
 206520500  0.185827808  0.000000000
 210020000  0.188972336  0.000000000
 213519500  0.183887728  0.000000000
 217019000  0.187297904  0.000000000
 220518500  0.190408096  0.000000000
 224018000  0.190805408  0.000000000
 227517500  0.196377472  0.000000000
 231017000  0.207488960  0.000000000
 234516500  0.206231424  0.000000000
 238016000  0.189847888  0.000000000
 241515500  0.194904272  0.000000000
 245015000  0.194782912  0.000000000
 248514500  0.184877920  0.000000000
 252014000  0.197328832  0.000000000
 255513500  0.175006768  0.000000000
 259013000  0.195381232  0.000000000
 262512500  0.364604896  0.000000000
 266012000  0.527225504  0.000000000
 269511500  0.591707776  0.000000000
 273011000  0.632619648  0.000000000
 276510500  0.681718976  0.000000000
 280010000  0.753819136  0.000000000
 283509500  0.818273664  0.000000000
 287009000  0.847966976  0.000000000
 290508500  0.873432640  0.000000000
 294008000  0.885855744  0.000000000
 297507500  0.882155200  0.000000000
 301007000  0.881852416  0.000000000
 304506500  0.883560000  0.000000000
 308006000  0.895315904  0.000000000
 311505500  0.922011264  0.000000000
 315005000  0.959167552  0.000000000
 318504500  0.990469056  0.000000000
 322004000  1.006499648  0.000000000
 325503500  1.025049448  0.000000000
 329003000  1.033845900  0.000000000
 332502500  1.021297098  0.000000000
 336002000  1.013409853  0.000000000
 339501500  1.010510802  0.000000000
 343001000  1.005798340  0.000000000
 346500500  1.011628509  0.000000000
 350000000  1.024658560  0.000000000
