!File created by NanoVNA
# Hz S RI R 50
     50000  0.999814784 -0.018825184
   3549500 -0.109002152 -0.883003712
   7049000 -0.237099088  0.687559744
  10548500  0.808017408  0.230135248
  14048000  0.386584416 -0.676275904
  17547500 -0.501938464  0.246954416
  21047000  0.590185792  0.450566464
  24546500  0.629447360 -0.345721024
  28046000 -0.415781888 -0.225974672
  31545500  0.385640704  0.495978464
  35045000  0.300183072 -0.054003484
  38544500  0.148731328 -0.522796032
  42044000 -0.158050112  0.330600000
  45543500  0.581473984  0.162685920
  49043000  0.363933952 -0.482808160
  52542500 -0.288587744 -0.047009496
  56042000  0.402834944  0.385134560
  59541500  0.580197312 -0.274445280
  63041000 -0.142984800 -0.337610208
  66540500  0.125942872  0.376346816
  70040000  0.592688128 -0.085759400
  73539500  0.079826968 -0.481491136
  77039000 -0.073504216  0.261942768
  80538500  0.425745472  0.013204096
  84038000  0.227636752 -0.347687392
  87537500 -0.053628668  0.048629704
  91037000  0.127337712 -0.131360952
  94536500  0.237140048  0.123602432
  98036000  0.178995440 -0.203720496
 101535500 -0.125759736 -0.081813440
 105035000  0.145727056  0.281140128
 108534500  0.317815648 -0.152714368
 112034000 -0.168181200 -0.060006972
 115533500  0.109850440  0.406072512
 119033000  0.470301760  0.051447276
 122532500  0.139334512 -0.156968544
 126032000  0.034111392  0.188863856
 129531500  0.463634624  0.160238256
 133031000  0.285191872 -0.231521952
 136530500 -0.014879620  0.013380514
 140030000  0.331291872  0.243411936
 143529500  0.468331616 -0.197255424
 147029000 -0.030291650 -0.248570560
 150528500  0.099154776  0.251932976
 154028000  0.450212192 -0.048723152
 157527500  0.124305376 -0.241330512
 161027000 -0.056484056  0.099653240
 164526500  0.381117600  0.171021776
 168026000  0.347016736 -0.275333888
 171525500 -0.135517680 -0.137712224
 175025000  0.154791408  0.278789408
 178524500  0.443470016 -0.068858944
 182024000  0.193159040  0.000000000
 185523500  0.189753184  0.000000000
 189023000  0.194091312  0.000000000
 192522500  0.192120112  0.000000000
 196022000  0.187936944  0.000000000
 199521500  0.190430096  0.000000000
 203021000  0.185462448  0.000000000
 206520500  0.187352784  0.000000000
 210020000  0.189993184  0.000000000
 213519500  0.184665008  0.000000000
 217019000  0.188057952  0.000000000
 220518500  0.191379712  0.000000000
 224018000  0.192034928  0.000000000
 227517500  0.197726864  0.000000000
 231017000  0.208882608  0.000000000
 234516500  0.207511456  0.000000000
 238016000  0.190878928  0.000000000
 241515500  0.195768944  0.000000000
 245015000  0.195587920  0.000000000
 248514500  0.185780448  0.000000000
 252014000  0.198478576  0.000000000
 255513500  0.176339568  0.000000000
 259013000  0.196720304  0.000000000
 262512500  0.365770880  0.000000000
 266012000  0.528086656  0.000000000
 269511500  0.592218368  0.000000000
 273011000  0.632921088  0.000000000
 276510500  0.682158208  0.000000000
 280010000  0.754628032  0.000000000
 283509500  0.819496512  0.000000000
 287009000  0.849585536  0.000000000
 290508500  0.875260672  0.000000000
 294008000  0.887591488  0.000000000
 297507500  0.883495872  0.000000000
 301007000  0.882569088  0.000000000
 304506500  0.883548864  0.000000000
 308006000  0.894483904  0.000000000
 311505500  0.920406400  0.000000000
 315005000  0.957014464  0.000000000
 318504500  0.987860288  0.000000000
 322004000  1.003522635  0.000000000
 325503500  1.021934152  0.000000000
 329003000  1.030777216  0.000000000
 332502500  1.018522382  0.000000000
 336002000  1.011252403  0.000000000
 339501500  1.009185791  0.000000000
 343001000  1.005492211  0.000000000
 346500500  1.012421608  0.000000000
 350000000  1.026436568  0.000000000
