!File created by NanoVNA
# Hz S RI R 50
     50000  0.999760512 -0.018715990
   3549500 -0.109385656 -0.882827904
   7049000 -0.237352736  0.687884288
  10548500  0.797336192  0.216208352
  14048000  0.385842848 -0.678600768
  17547500 -0.502023040  0.245888304
  21047000  0.590229184  0.450521888
  24546500  0.629516416 -0.338478848
  28046000 -0.414985152 -0.225857248
  31545500  0.388886944  0.489749056
  35045000  0.311827392 -0.037341168
  38544500  0.155242800 -0.564227520
  42044000 -0.155173184  0.335056032
  45543500  0.594276736  0.160794480
  49043000  0.356629408 -0.480782432
  52542500 -0.271275808 -0.019568060
  56042000  0.404308864  0.384492096
  59541500  0.579227264 -0.274913088
  63041000 -0.143343568 -0.335144544
  66540500  0.126724560  0.377224064
  70040000  0.592811392 -0.085823144
  73539500  0.079351232 -0.480587936
  77039000 -0.069859624  0.261107264
  80538500  0.424646368  0.012375780
  84038000  0.230179616 -0.347545856
  87537500 -0.054304636  0.039746264
  91037000  0.120631920 -0.134814160
  94536500  0.236500416  0.125851752
  98036000  0.184057824 -0.206024112
 101535500 -0.125488536 -0.092759568
 105035000  0.139703856  0.274784352
 108534500  0.318171232 -0.152543136
 112034000 -0.168178336 -0.059940188
 115533500  0.109795624  0.406010368
 119033000  0.470402464  0.051643520
 122532500  0.139176304 -0.156912560
 126032000  0.034138408  0.188939536
 129531500  0.463451168  0.160400912
 133031000  0.284899680 -0.231433088
 136530500 -0.014417320  0.012703399
 140030000  0.331225504  0.242550336
 143529500  0.468256672 -0.197266176
 147029000 -0.030233478 -0.248356336
 150528500  0.099310856  0.251915552
 154028000  0.450323648 -0.048879332
 157527500  0.123786928 -0.241105584
 161027000 -0.056277620  0.099440952
 164526500  0.381085056  0.171042720
 168026000  0.346930752 -0.275383616
 171525500 -0.135542784 -0.137556480
 175025000  0.154920496  0.278654752
 178524500  0.443482304 -0.068900240
 182024000  0.040201084 -0.303186336
 185523500 -0.074114096  0.186887712
 189023000  0.371981472  0.130954696
 192522500  0.198449120 -0.249904992
 196022000 -0.108584608  0.094254472
 199521500  0.317982912  0.232248256
 203021000  0.376527712 -0.166421824
 206520500 -0.044270836 -0.186620944
 210020000  0.061588308  0.229116528
 213519500  0.357037408  0.009441776
 217019000  0.073582472 -0.178933456
 220518500  0.004323040  0.147219120
 224018000  0.260825520  0.108883704
 227517500  0.196060128 -0.065695496
 231017000  0.026017200  0.017175196
 234516500  0.174217536  0.210514352
 238016000  0.328384352 -0.016056625
 241515500  0.049147920 -0.092541432
 245015000  0.065272308  0.204227920
 248514500  0.312592672  0.108567920
 252014000  0.138319136 -0.056811948
 255513500  0.065077072  0.193741040
 259013000  0.335676960  0.216463888
 262512500  0.324396416 -0.032618630
 266012000  0.146590368  0.064729884
 269511500  0.320653248  0.157897520
 273011000  0.389074048 -0.040641916
 276510500  0.231960800 -0.123189416
 280010000  0.095447000 -0.021156776
 283509500  0.220696992  0.135110576
 287009000  0.333098400 -0.058067684
 290508500  0.069520472 -0.076913256
 294008000  0.143546192  0.182324960
 297507500  0.369992480  0.069653488
 301007000  0.198604912 -0.129574848
 304506500  0.068169760  0.099849680
 308006000  0.268849280  0.168386944
 311505500  0.330174752  0.028359608
 315005000  0.196786432 -0.007858541
 318504500  0.243939680  0.143367648
 322004000  0.397032544  0.055455532
 325503500  0.311515840 -0.087053456
 329003000  1.032886982  0.000000000
 332502500  1.020447732  0.000000000
 336002000  1.012907386  0.000000000
 339501500  1.010493875  0.000000000
 343001000  1.006391883  0.000000000
 346500500  1.012862325  0.000000000
 350000000  1.026435256  0.000000000
