!File created by NanoVNA
# Hz S RI R 50
     50000  0.662022592 -0.004470138
   4299500 -0.292443808 -0.593001984
   8549000  0.318033344  0.456736640
  12798500  0.497128256 -0.270365664
  17048000 -0.448463392  0.028188328
  21297500  0.465164288  0.229991536
  25547000  0.328920320 -0.374514144
  29796500 -0.094029768  0.353752736
  34046000  0.359169920 -0.100542104
  38295500  0.224966944 -0.391419680
  42545000  0.012024124  0.276511680
  46794500  0.444776608 -0.062809200
  51044000 -0.048631596 -0.292824800
  55293500  0.184577920  0.282197920
  59543000  0.411569120 -0.194750192
  63792500 -0.175618736 -0.156486448
  68042000  0.333671584  0.149960016
  72291500  0.273000224 -0.324464608
  76541000 -0.152040848  0.103165248
  80790500  0.331199808 -0.042071380
  85040000  0.040858344 -0.297594528
  89289500  0.148806240  0.030006256
  93539000  0.096623992  0.049461408
  97788500  0.113125984 -0.180841136
 102038000 -0.082278104 -0.020593908
 106287500  0.252448144  0.059510140
 110537000 -0.016425429 -0.191414656
 114786500  0.071210168  0.240282480
 119036000  0.327933376 -0.064596364
 123285500  0.027591786 -0.109825664
 127535000  0.216637456  0.133386520
 131784500  0.264357440 -0.196332896
 136034000 -0.005133546 -0.056879868
 140283500  0.294658080  0.046498820
 144533000  0.194355376 -0.291730656
 148782500 -0.061233292  0.029253286
 153032000  0.310771968 -0.053146960
 157281500  0.022225508 -0.237539440
 161531000  0.048294852  0.062401704
 165780500  0.297892736 -0.114283928
 170030000 -0.032095626 -0.258074976
 174279500  0.097239632  0.127318624
 178529000  0.269654368 -0.176944384
 182778500 -0.102175784 -0.175202592
 187028000  0.173228208  0.099126744
 191277500  0.180707696 -0.223047136
 195527000 -0.072674120  0.020684028
 199776500  0.275726560 -0.009886301
 204026000  0.105747512 -0.267130144
 208275500 -0.041848676  0.038340128
 212525000  0.233875424 -0.067116560
 216774500  0.009404517 -0.183302672
 221024000  0.078695416  0.053862488
 225273500  0.177155856 -0.098522216
 229523000  0.031549730 -0.112870976
 233772500  0.124946592  0.051645924
 238022000  0.194769328 -0.155486800
 242271500 -0.022975686 -0.067818416
 246521000  0.188114704  0.029195300
 250770500  0.130270464 -0.152294768
 255020000  0.068307224  0.030595070
 259269500  0.264253200 -0.044158736
 263519000  0.127182512 -0.167939024
 267768500  0.166549248 -0.027815958
 272018000  0.229450672 -0.175919600
 276267500  0.092145008 -0.202691040
 280517000  0.043033708 -0.073924120
 284766500  0.196890192 -0.103180256
 289016000  0.043645708 -0.197538384
 293265500  0.102069392 -0.000645931
 297515000  0.211742304 -0.154525040
 301764500  0.048393848 -0.143738400
 306014000  0.137064672  0.009150598
 310263500  0.219427280 -0.095624128
 314513000  0.103566368 -0.117937792
 318762500  0.202976192 -0.038781296
 323012000  0.216384864 -0.173175536
 327261500  0.113552832 -0.129036024
 331511000  0.210682304 -0.133709032
 335760500  0.126468584 -0.230362192
 340010000  0.077242320 -0.104788912
 344259500  0.179531248 -0.163145648
 348509000  0.058568672 -0.204110608
 352758500  0.104977264 -0.089256368
 357008000  0.155368496 -0.185846304
 361257500  0.036903952 -0.167115264
 365507000  0.138355024 -0.102349968
 369756500  0.137084928 -0.223118736
 374006000 -0.004086618 -0.196063312
 378255500  0.073663664 -0.099247088
 382505000  0.058971584 -0.186494208
 386754500 -0.000192988 -0.079642496
 391004000  0.128640056 -0.083341456
 395253500  0.089475000 -0.174730144
 399503000  0.039747860 -0.088888672
 403752500  0.135415648 -0.122605528
 408002000  0.066096084 -0.184749504
 412251500  0.613508288  0.000000000
 416501000  0.652865600  0.000000000
 420750500  0.677990528  0.000000000
 425000000  0.694888064  0.000000000
