!File created by NanoVNA
# Hz S RI R 50
     50000  1.000908494 -0.019103340
   3549500 -0.107275488 -0.872965184
   7049000 -0.230915248  0.677215488
  10548500  0.796230720  0.242792704
  14048000  0.368469728 -0.690613312
  17547500 -0.470222752  0.245817424
  21047000  0.570458432  0.459781728
  24546500  0.652818304 -0.398343840
  28046000 -0.414174880 -0.205719984
  31545500  0.363916800  0.483400320
  35045000  0.713278208 -0.113839960
  38544500 -0.102510120 -0.455697056
  42044000  0.160254368  0.132435592
  45543500  0.588640704  0.175384464
  49043000  0.344283328 -0.528480960
  52542500 -0.152265456  0.147669216
  56042000  0.253019504  0.205111856
  59541500  0.509016288 -0.250689840
  63041000 -0.153030832 -0.297790464
  66540500  0.073406800  0.240797712
  70040000  0.442812288  0.019261296
  73539500  0.145936464 -0.399154944
  77039000 -0.107105856  0.278761664
  80538500  0.279136224  0.094269296
  84038000  0.288361536 -0.241536496
  87537500  0.061134796  0.012898160
  91037000  0.100941912 -0.064837568
  94536500  0.257814496  0.236130640
  98036000  0.390569344 -0.260875104
 101535500 -0.205212416 -0.086195048
 105035000  0.299153248  0.297947360
 108534500  0.390413664 -0.210161104
 112034000 -0.111578264 -0.159730608
 115533500  0.074369808  0.353120928
 119033000  0.527202432  0.043730676
 122532500  0.147004880 -0.361907808
 126032000 -0.125237360  0.196354240
 129531500  0.441322336  0.179774816
 133031000  0.236350320 -0.308068704
 136530500 -0.134024560  0.126004728
 140030000  0.365092160  0.293278912
 143529500  0.467575808 -0.179512864
 147029000 -0.065999932 -0.202269904
 150528500  0.148947504  0.301691904
 154028000  0.490730784 -0.019751720
 157527500  0.113491104 -0.294858400
 161027000 -0.002996682  0.193182144
 164526500  0.438645792  0.114770008
 168026000  0.328585600 -0.289115584
 171525500 -0.119812832 -0.104359640
 175025000  0.210413328  0.256218368
 178524500  0.435180064 -0.103201480
 182024000  0.047719232 -0.289798752
 185523500 -0.050172632  0.167170528
 189023000  0.365945696  0.104644192
 192522500  0.194060432 -0.238267056
 196022000 -0.094820056  0.070554616
 199521500  0.303675360  0.225490080
 203021000  0.367464096 -0.148442208
 206520500 -0.005614730 -0.183127856
 210020000  0.047557428  0.212720784
 213519500  0.371122912  0.027919850
 217019000  0.121591072 -0.190317888
 220518500 -0.015610510  0.101275864
 224018000  0.293723072  0.134648608
 227517500  0.217135184 -0.147325104
 231017000 -0.018443034  0.016163889
 234516500  0.205346320  0.181405328
 238016000  0.293510752 -0.064020208
 241515500  0.033432756 -0.108088144
 245015000  0.024641600  0.167396816
 248514500  0.288720416  0.095537136
 252014000  0.069582552 -0.095320504
 255513500 -0.001036861  0.217723312
 259013000  0.292432576  0.227589696
 262512500  0.263510080 -0.014710191
 266012000  0.071023464  0.101250936
 269511500  0.271724192  0.247033952
 273011000  0.399421760  0.020612922
 276510500  0.661336192  0.000000000
 280010000  0.721702400  0.000000000
 283509500  0.788804032  0.000000000
 287009000  0.841360064  0.000000000
 290508500  0.890146112  0.000000000
 294008000  0.917992320  0.000000000
 297507500  0.917119936  0.000000000
 301007000  0.915560704  0.000000000
 304506500  0.919737984  0.000000000
 308006000  0.929653184  0.000000000
 311505500  0.950654848  0.000000000
 315005000  0.977807552  0.000000000
 318504500  0.997777088  0.000000000
 322004000  1.007835746  0.000000000
 325503500  1.016587377  0.000000000
 329003000  1.015435934  0.000000000
 332502500  1.004046798  0.000000000
 336002000  0.997543744  0.000000000
 339501500  0.991164992  0.000000000
 343001000  0.986591040  0.000000000
 346500500  0.993800000  0.000000000
 350000000  1.005372286  0.000000000
