!File created by NanoVNA
# Hz S RI R 50
     50000  1.000967026 -0.018979016
   3549500 -0.107212072 -0.873020992
   7049000 -0.230990544  0.677112640
  10548500  0.796347136  0.242999088
  14048000  0.368608832 -0.690611520
  17547500 -0.470211968  0.245494048
  21047000  0.570504384  0.459856576
  24546500  0.652840192 -0.398348256
  28046000 -0.414212480 -0.205679248
  31545500  0.363317088  0.482939232
  35045000  0.712548736 -0.114892544
  38544500 -0.102148592 -0.453723904
  42044000  0.206090688  0.000000000
  45543500  0.202630000  0.000000000
  49043000  0.201014464  0.000000000
  52542500  0.182291280  0.000000000
  56042000  0.186553664  0.000000000
  59541500  0.191960896  0.000000000
  63041000  0.186771952  0.000000000
  66540500  0.190415792  0.000000000
  70040000  0.194009168  0.000000000
  73539500  0.195988912  0.000000000
  77039000  0.196710192  0.000000000
  80538500  0.202966960  0.000000000
  84038000  0.206014336  0.000000000
  87537500  0.198497072  0.000000000
  91037000  0.201232064  0.000000000
  94536500  0.206513680  0.000000000
  98036000  0.203026256  0.000000000
 101535500  0.200678192  0.000000000
 105035000  0.205893184  0.000000000
 108534500  0.212313984  0.000000000
 112034000  0.207933552  0.000000000
 115533500  0.206408736  0.000000000
 119033000  0.206038928  0.000000000
 122532500  0.197984448  0.000000000
 126032000  0.201290000  0.000000000
 129531500  0.204419744  0.000000000
 133031000  0.201054192  0.000000000
 136530500  0.203563472  0.000000000
 140030000  0.201292720  0.000000000
 143529500  0.196868128  0.000000000
 147029000  0.193459344  0.000000000
 150528500  0.192931200  0.000000000
 154028000  0.200303040  0.000000000
 157527500  0.206481568  0.000000000
 161027000  0.210817024  0.000000000
 164526500  0.205476544  0.000000000
 168026000  0.197443552  0.000000000
 171525500  0.202798304  0.000000000
 175025000  0.203240128  0.000000000
 178524500  0.201374944  0.000000000
 182024000  0.203531216  0.000000000
 185523500  0.201937952  0.000000000
 189023000  0.205077776  0.000000000
 192522500  0.203230000  0.000000000
 196022000  0.199028272  0.000000000
 199521500  0.200100816  0.000000000
 203021000  0.195370288  0.000000000
 206520500  0.197178112  0.000000000
 210020000  0.200283120  0.000000000
 213519500  0.195583152  0.000000000
 217019000  0.197802800  0.000000000
 220518500  0.199765232  0.000000000
 224018000  0.197833264  0.000000000
 227517500  0.202776848  0.000000000
 231017000  0.215344112  0.000000000
 234516500  0.212976800  0.000000000
 238016000  0.194867760  0.000000000
 241515500  0.198430560  0.000000000
 245015000  0.197476352  0.000000000
 248514500  0.186343392  0.000000000
 252014000  0.198627632  0.000000000
 255513500  0.180995712  0.000000000
 259013000  0.201342080  0.000000000
 262512500  0.370934048  0.000000000
 266012000  0.539926976  0.000000000
 269511500  0.596023232  0.000000000
 273011000  0.621424320  0.000000000
 276510500  0.661198144  0.000000000
 280010000  0.721591680  0.000000000
 283509500  0.788696704  0.000000000
 287009000  0.841283584  0.000000000
 290508500  0.890103680  0.000000000
 294008000  0.917932160  0.000000000
 297507500  0.917043200  0.000000000
 301007000  0.915455872  0.000000000
 304506500  0.919568256  0.000000000
 308006000  0.929454144  0.000000000
 311505500  0.950478656  0.000000000
 315005000  0.977683328  0.000000000
 318504500  0.997670528  0.000000000
 322004000  1.007701159  0.000000000
 325503500  1.016483426  0.000000000
 329003000  1.015340686  0.000000000
 332502500  1.003887415  0.000000000
 336002000  0.997385088  0.000000000
 339501500  0.991020416  0.000000000
 343001000  0.986447104  0.000000000
 346500500  0.993697600  0.000000000
 350000000  1.005275250  0.000000000
