!File created by NanoVNA
# Hz S RI R 50
     50000  1.000716090 -0.019147574
   3549500 -0.107011024 -0.872963200
   7049000 -0.230985328  0.677154752
  10548500  0.796281152  0.242750528
  14048000  0.368583616 -0.690662656
  17547500 -0.469978496  0.245821568
  21047000  0.570702592  0.459892768
  24546500  0.652727744 -0.398319200
  28046000 -0.414217888 -0.205718096
  31545500  0.363609472  0.483267872
  35045000  0.712904960 -0.113857096
  38544500 -0.101850016 -0.455505024
  42044000  0.156348544  0.133653536
  45543500  0.588857408  0.174511008
  49043000  0.343958496 -0.528255392
  52542500 -0.151139360  0.146461360
  56042000  0.255107200  0.204071632
  59541500  0.508790560 -0.250725872
  63041000 -0.153540112 -0.297842560
  66540500  0.074475584  0.240094272
  70040000  0.441427968  0.019691516
  73539500  0.146243312 -0.399535488
  77039000 -0.106743312  0.278337344
  80538500  0.281708416  0.094399192
  84038000  0.288403584 -0.241180128
  87537500  0.060935372  0.013025002
  91037000  0.100186856 -0.065204768
  94536500  0.257610704  0.236001552
  98036000  0.390748576 -0.261087664
 101535500 -0.205595584 -0.084328448
 105035000  0.299810272  0.298095264
 108534500  0.389691936 -0.209979616
 112034000 -0.111393392 -0.159872000
 115533500  0.074432512  0.352755072
 119033000  0.527303648  0.043929376
 122532500  0.146961600 -0.361475808
 126032000 -0.125217664  0.196323072
 129531500  0.441447616  0.179749184
 133031000  0.236394800 -0.308013312
 136530500 -0.133890616  0.126123816
 140030000  0.365080736  0.293059008
 143529500  0.467423872 -0.179238224
 147029000 -0.065701128 -0.202323776
 150528500  0.148985888  0.301524064
 154028000  0.490683808 -0.019787002
 157527500  0.113652464 -0.294537696
 161027000 -0.003382598  0.192723072
 164526500  0.438928928  0.114684584
 168026000  0.328640352 -0.289097472
 171525500 -0.119694576 -0.104438152
 175025000  0.210419376  0.256347264
 178524500  0.435296640 -0.103111936
 182024000  0.047259744 -0.290799264
 185523500  0.202138736  0.000000000
 189023000  0.205263040  0.000000000
 192522500  0.203411104  0.000000000
 196022000  0.199228160  0.000000000
 199521500  0.200309104  0.000000000
 203021000  0.195567568  0.000000000
 206520500  0.197353936  0.000000000
 210020000  0.200417904  0.000000000
 213519500  0.195679392  0.000000000
 217019000  0.197862480  0.000000000
 220518500  0.199764448  0.000000000
 224018000  0.197805408  0.000000000
 227517500  0.202784608  0.000000000
 231017000  0.215394992  0.000000000
 234516500  0.213091664  0.000000000
 238016000  0.195056656  0.000000000
 241515500  0.198634032  0.000000000
 245015000  0.197676992  0.000000000
 248514500  0.186533616  0.000000000
 252014000  0.198763648  0.000000000
 255513500  0.181095056  0.000000000
 259013000  0.201417920  0.000000000
 262512500  0.371020192  0.000000000
 266012000  0.540093440  0.000000000
 269511500  0.596211008  0.000000000
 273011000  0.621616512  0.000000000
 276510500  0.661440192  0.000000000
 280010000  0.721807808  0.000000000
 283509500  0.788898368  0.000000000
 287009000  0.841472256  0.000000000
 290508500  0.890201088  0.000000000
 294008000  0.918061312  0.000000000
 297507500  0.917255424  0.000000000
 301007000  0.915669568  0.000000000
 304506500  0.919816320  0.000000000
 308006000  0.929674816  0.000000000
 311505500  0.950585152  0.000000000
 315005000  0.977686848  0.000000000
 318504500  0.997611392  0.000000000
 322004000  1.007670045  0.000000000
 325503500  1.016424179  0.000000000
 329003000  1.015270710  0.000000000
 332502500  1.004010916  0.000000000
 336002000  0.997594688  0.000000000
 339501500  0.991198144  0.000000000
 343001000  0.986699968  0.000000000
 346500500  0.993948288  0.000000000
 350000000  1.005491138  0.000000000
