!File created by NanoVNA
# Hz S RI R 50
     50000  1.001256228 -0.019036670
   3549500 -0.107173080 -0.872829312
   7049000 -0.230644032  0.676982528
  10548500  0.796555264  0.243114896
  14048000  0.368375168 -0.690505664
  17547500 -0.470051904  0.243065936
  21047000  0.571590336  0.459779488
  24546500  0.652752000 -0.398818144
  28046000 -0.413769632 -0.204415760
  31545500  0.349906720  0.465910624
  35045000  0.720871808 -0.131109608
  38544500 -0.127745464 -0.441452000
  42044000  0.127487824  0.048582840
  45543500  0.599034816  0.172441968
  49043000  0.338190272 -0.531171456
  52542500 -0.138086960  0.153529888
  56042000  0.262539952  0.211523104
  59541500  0.505360832 -0.256031280
  63041000 -0.142403312 -0.281817792
  66540500  0.061876220  0.229356448
  70040000  0.447755776  0.024429476
  73539500  0.143502416 -0.394478272
  77039000 -0.087868856  0.264469600
  80538500  0.344632000  0.130905120
  84038000  0.245643056 -0.232297312
  87537500  0.117840080  0.001274380
  91037000  0.024253324 -0.060674504
  94536500  0.314308896  0.240869344
  98036000  0.367817056 -0.293625600
 101535500 -0.218819968 -0.040881732
 105035000  0.327000384  0.271103200
 108534500  0.348541696 -0.211166576
 112034000 -0.087854872 -0.169962848
 115533500  0.081725992  0.351501600
 119033000  0.521183264  0.043326924
 122532500  0.148957936 -0.358178848
 126032000 -0.123324584  0.194505840
 129531500  0.441467136  0.175152880
 133031000  0.226034112 -0.297372416
 136530500 -0.130859912  0.109801184
 140030000  0.365488064  0.296358272
 143529500  0.467684736 -0.180831904
 147029000 -0.066764988 -0.200695712
 150528500  0.193980848  0.000000000
 154028000  0.201903680  0.000000000
 157527500  0.208505888  0.000000000
 161027000  0.213072912  0.000000000
 164526500  0.208041424  0.000000000
 168026000  0.200220656  0.000000000
 171525500  0.205584448  0.000000000
 175025000  0.205993232  0.000000000
 178524500  0.204330704  0.000000000
 182024000  0.206686928  0.000000000
 185523500  0.205208736  0.000000000
 189023000  0.208617312  0.000000000
 192522500  0.206830736  0.000000000
 196022000  0.202595456  0.000000000
 199521500  0.203685200  0.000000000
 203021000  0.198537792  0.000000000
 206520500  0.199792816  0.000000000
 210020000  0.202435712  0.000000000
 213519500  0.197186192  0.000000000
 217019000  0.198940080  0.000000000
 220518500  0.200571344  0.000000000
 224018000  0.198753648  0.000000000
 227517500  0.204148816  0.000000000
 231017000  0.217101664  0.000000000
 234516500  0.215479552  0.000000000
 238016000  0.198169488  0.000000000
 241515500  0.202177312  0.000000000
 245015000  0.201706288  0.000000000
 248514500  0.190722624  0.000000000
 252014000  0.202816656  0.000000000
 255513500  0.184960752  0.000000000
 259013000  0.204891280  0.000000000
 262512500  0.374498336  0.000000000
 266012000  0.543773504  0.000000000
 269511500  0.599809536  0.000000000
 273011000  0.625358720  0.000000000
 276510500  0.665164672  0.000000000
 280010000  0.724877568  0.000000000
 283509500  0.790533952  0.000000000
 287009000  0.841335424  0.000000000
 290508500  0.889914048  0.000000000
 294008000  0.918762688  0.000000000
 297507500  0.918531520  0.000000000
 301007000  0.918507328  0.000000000
 304506500  0.924465664  0.000000000
 308006000  0.933714432  0.000000000
 311505500  0.952508224  0.000000000
 315005000  0.978297024  0.000000000
 318504500  0.997990080  0.000000000
 322004000  1.007942915  0.000000000
 325503500  1.017599106  0.000000000
 329003000  1.019218684  0.000000000
 332502500  1.010012031  0.000000000
 336002000  1.004001975  0.000000000
 339501500  0.997290880  0.000000000
 343001000  0.990785408  0.000000000
 346500500  0.995581888  0.000000000
 350000000  1.006071687  0.000000000
