!File created by NanoVNA
# Hz S RI R 50
     50000  1.000834823 -0.019129748
   3549500 -0.107327680 -0.873048768
   7049000 -0.230979280  0.677134400
  10548500  0.796175680  0.242920416
  14048000  0.368475040 -0.690481024
  17547500 -0.470067168  0.245733648
  21047000  0.570694528  0.459708320
  24546500  0.652732608 -0.398348288
  28046000 -0.414144320 -0.205598016
  31545500  0.363897696  0.483114208
  35045000  0.713020032 -0.114087768
  38544500 -0.102229080 -0.455148608
  42044000  0.157072432  0.132269216
  45543500  0.588987904  0.174799248
  49043000  0.343778944 -0.528568256
  52542500 -0.150998384  0.147808544
  56042000  0.255061808  0.206601584
  59541500  0.508584256 -0.250923312
  63041000 -0.153180752 -0.297861888
  66540500  0.073575416  0.240507424
  70040000  0.442953152  0.019192034
  73539500  0.145462816 -0.398720992
  77039000 -0.106548544  0.278854944
  80538500  0.280255040  0.095775672
  84038000  0.287464288 -0.241680976
  87537500  0.060885956  0.013709744
  91037000  0.100999352 -0.066822940
  94536500  0.257504192  0.238346864
  98036000  0.390866048 -0.261396624
 101535500 -0.206929872 -0.083791160
 105035000  0.300178016  0.298399456
 108534500  0.389182208 -0.209689984
 112034000 -0.111164960 -0.161060368
 115533500  0.074299464  0.353287328
 119033000  0.527403232  0.043811692
 122532500  0.147053552 -0.362293568
 126032000 -0.125244408  0.196811040
 129531500  0.441526208  0.179456672
 133031000  0.235876464 -0.308213568
 136530500 -0.133583176  0.126283600
 140030000  0.364965632  0.293120832
 143529500  0.467581088 -0.179338752
 147029000 -0.065936656 -0.202295248
 150528500  0.148897856  0.301758560
 154028000  0.491045248 -0.020123484
 157527500  0.113047680 -0.294359008
 161027000 -0.002871274  0.192801888
 164526500  0.438794464  0.114867632
 168026000  0.328646976 -0.289039584
 171525500 -0.119788184 -0.104292432
 175025000  0.210505872  0.256277264
 178524500  0.435149568 -0.103039976
 182024000  0.046705260 -0.289900512
 185523500 -0.049965616  0.167159088
 189023000  0.365956416  0.104635016
 192522500  0.194096288 -0.238206096
 196022000 -0.094730376  0.070664736
 199521500  0.303856320  0.225542000
 203021000  0.367494720 -0.148285648
 206520500 -0.005605912 -0.183018704
 210020000  0.047635664  0.212920304
 213519500  0.371299264  0.027774484
 217019000  0.121232912 -0.190342928
 220518500 -0.015246239  0.101204920
 224018000  0.293581056  0.134683536
 227517500  0.216945424 -0.146997632
 231017000 -0.018137460  0.016134882
 234516500  0.205164336  0.181328672
 238016000  0.293707584 -0.063693008
 241515500  0.033450790 -0.108257880
 245015000  0.024461736  0.167600992
 248514500  0.289038912  0.095507744
 252014000  0.069533448 -0.095367808
 255513500 -0.000970808  0.217803520
 259013000  0.292527680  0.227530688
 262512500  0.263590656 -0.014835992
 266012000  0.071104264  0.101288168
 269511500  0.272117600  0.247247152
 273011000  0.399475776  0.020230058
 276510500  0.171879808 -0.094039608
 280010000  0.088750392  0.111038592
 283509500  0.255949952  0.186904320
 287009000  0.328073856  0.016152713
 290508500  0.109053088  0.017841776
 294008000  0.220632848  0.243877008
 297507500  0.426542624  0.104932960
 301007000  0.268232048 -0.092512640
 304506500  0.919888128  0.000000000
 308006000  0.929761216  0.000000000
 311505500  0.950790208  0.000000000
 315005000  0.977967744  0.000000000
 318504500  0.997948032  0.000000000
 322004000  1.007986188  0.000000000
 325503500  1.016759992  0.000000000
 329003000  1.015630722  0.000000000
 332502500  1.004175902  0.000000000
 336002000  0.997657536  0.000000000
 339501500  0.991293504  0.000000000
 343001000  0.986693568  0.000000000
 346500500  0.993923776  0.000000000
 350000000  1.005516291  0.000000000
