!File created by NanoVNA
# Hz S RI R 50
     50000  1.001141906 -0.019250780
   3549500 -0.107086960 -0.872938240
   7049000 -0.230837952  0.677119488
  10548500  0.796977792  0.243049712
  14048000  0.368440704 -0.690543808
  17547500 -0.470910816  0.243225360
  21047000  0.571721920  0.459579968
  24546500  0.652818752 -0.398763808
  28046000 -0.414098432 -0.204772880
  31545500  0.350519680  0.470466656
  35045000  0.718914240 -0.130978448
  38544500 -0.125229088 -0.437421344
  42044000  0.102246904  0.067316648
  45543500  0.598448960  0.167661424
  49043000  0.333164224 -0.528873216
  52542500 -0.119364536  0.148589840
  56042000  0.278895552  0.219789440
  59541500  0.502687328 -0.258563968
  63041000 -0.138607040 -0.279728480
  66540500  0.058610736  0.230408288
  70040000  0.448668672  0.025406346
  73539500  0.141195520 -0.396137056
  77039000 -0.079472080  0.258101376
  80538500  0.347464384  0.131293256
  84038000  0.251096544 -0.228624288
  87537500  0.108768272 -0.003340567
  91037000  0.033087306 -0.053687876
  94536500  0.309128448  0.236802688
  98036000  0.368275328 -0.290471584
 101535500 -0.214766384 -0.042949100
 105035000  0.324940256  0.271982272
 108534500  0.351390816 -0.213596816
 112034000 -0.083438184 -0.166506864
 115533500  0.080018528  0.351244640
 119033000  0.521182432  0.043789620
 122532500  0.149334304 -0.357410432
 126032000 -0.123554208  0.193555456
 129531500  0.441123456  0.176419360
 133031000  0.227076880 -0.298535712
 136530500 -0.130491864  0.110600064
 140030000  0.365427808  0.296354816
 143529500  0.467860928 -0.180687232
 147029000 -0.066485220 -0.200947520
 150528500  0.149911440  0.299646944
 154028000  0.487580896 -0.018065244
 157527500  0.118885928 -0.294168000
 161027000 -0.006130168  0.190879072
 164526500  0.439095264  0.118144144
 168026000  0.328973664 -0.291290432
 171525500 -0.120444144 -0.104806576
 175025000  0.210455536  0.257635296
 178524500  0.436062048 -0.103645776
 182024000  0.046256052 -0.291000224
 185523500 -0.049968432  0.167528080
 189023000  0.365805248  0.104431000
 192522500  0.194262432 -0.238058864
 196022000 -0.094655728  0.070251392
 199521500  0.303404544  0.225485120
 203021000  0.367335488 -0.147677920
 206520500 -0.003775132 -0.182344864
 210020000  0.047778896  0.208033584
 213519500  0.365185824  0.032043338
 217019000  0.131953848 -0.190406352
 220518500 -0.027135538  0.097022600
 224018000  0.300760768  0.142759088
 227517500  0.218050800 -0.154922304
 231017000 -0.023177452  0.017108966
 234516500  0.205502624  0.184457952
 238016000  0.298271552 -0.064180256
 241515500  0.029195468 -0.113877088
 245015000  0.024104360  0.177283824
 248514500  0.295360192  0.086917952
 252014000  0.063276268 -0.093384344
 255513500  0.183206176  0.000000000
 259013000  0.203108960  0.000000000
 262512500  0.372777856  0.000000000
 266012000  0.542021504  0.000000000
 269511500  0.598085696  0.000000000
 273011000  0.623752320  0.000000000
 276510500  0.663659584  0.000000000
 280010000  0.723798400  0.000000000
 283509500  0.789996160  0.000000000
 287009000  0.841119040  0.000000000
 290508500  0.889996288  0.000000000
 294008000  0.918889984  0.000000000
 297507500  0.918468032  0.000000000
 301007000  0.918301504  0.000000000
 304506500  0.924105216  0.000000000
 308006000  0.933277504  0.000000000
 311505500  0.951973824  0.000000000
 315005000  0.977691904  0.000000000
 318504500  0.997379968  0.000000000
 322004000  1.007060409  0.000000000
 325503500  1.016359091  0.000000000
 329003000  1.017515660  0.000000000
 332502500  1.007831216  0.000000000
 336002000  1.001863718  0.000000000
 339501500  0.995415616  0.000000000
 343001000  0.989387648  0.000000000
 346500500  0.994962496  0.000000000
 350000000  1.005857229  0.000000000
