!File created by NanoVNA
# Hz S RI R 50
     50000  1.000942349 -0.019103974
   3549500 -0.107073296 -0.872959680
   7049000 -0.230969424  0.677043072
  10548500  0.796266816  0.242927312
  14048000  0.368603200 -0.690572864
  17547500 -0.470372864  0.245536784
  21047000  0.570606592  0.459745632
  24546500  0.652743232 -0.398355648
  28046000 -0.414144352 -0.205616368
  31545500  0.363790048  0.483231168
  35045000  0.712995712 -0.114224912
  38544500 -0.102399944 -0.454974880
  42044000  0.156358704  0.131359664
  45543500  0.588891584  0.174730048
  49043000  0.343909472 -0.528543648
  52542500 -0.150671872  0.147599424
  56042000  0.254810272  0.206391360
  59541500  0.508646304 -0.251000352
  63041000 -0.152727728 -0.297610208
  66540500  0.073411104  0.240788048
  70040000  0.443014432  0.019328014
  73539500  0.145376304 -0.399221888
  77039000 -0.106304224  0.278765856
  80538500  0.280283936  0.095429416
  84038000  0.287985504 -0.241466064
  87537500  0.060736164  0.013411799
  91037000  0.100414384 -0.065668808
  94536500  0.257846528  0.236305232
  98036000  0.390689024 -0.261189072
 101535500 -0.205864720 -0.083433024
 105035000  0.300460608  0.297691392
 108534500  0.387990016 -0.209582704
 112034000 -0.109261288 -0.161730864
 115533500  0.074309096  0.353607776
 119033000  0.527383808  0.043958472
 122532500  0.147079664 -0.362285600
 126032000 -0.125222984  0.196776336
 129531500  0.441378208  0.179676128
 133031000  0.236080896 -0.308198496
 136530500 -0.133808480  0.125834864
 140030000  0.365091808  0.293398272
 143529500  0.467535040 -0.179510640
 147029000 -0.065996312 -0.202206784
 150528500  0.148964336  0.301686912
 154028000  0.490921760 -0.019808538
 157527500  0.113233112 -0.294559616
 161027000 -0.003232535  0.192816608
 164526500  0.438913536  0.114918040
 168026000  0.328570944 -0.289121184
 171525500 -0.119879600 -0.104220272
 175025000  0.210427952  0.256222880
 178524500  0.435073632 -0.103090896
 182024000  0.047576292 -0.289306848
 185523500 -0.050130588  0.167243216
 189023000  0.365975008  0.104811232
 192522500  0.203524304  0.000000000
 196022000  0.199335440  0.000000000
 199521500  0.200430096  0.000000000
 203021000  0.195652480  0.000000000
 206520500  0.197375056  0.000000000
 210020000  0.200441680  0.000000000
 213519500  0.195684768  0.000000000
 217019000  0.197897712  0.000000000
 220518500  0.199909424  0.000000000
 224018000  0.198018096  0.000000000
 227517500  0.203029200  0.000000000
 231017000  0.215627952  0.000000000
 234516500  0.213253904  0.000000000
 238016000  0.195134496  0.000000000
 241515500  0.198652752  0.000000000
 245015000  0.197684960  0.000000000
 248514500  0.186561392  0.000000000
 252014000  0.198854864  0.000000000
 255513500  0.181266848  0.000000000
 259013000  0.201627728  0.000000000
 262512500  0.371221792  0.000000000
 266012000  0.540227072  0.000000000
 269511500  0.596290432  0.000000000
 273011000  0.621673664  0.000000000
 276510500  0.661450304  0.000000000
 280010000  0.721846272  0.000000000
 283509500  0.788999168  0.000000000
 287009000  0.841590784  0.000000000
 290508500  0.890361664  0.000000000
 294008000  0.918180160  0.000000000
 297507500  0.917251136  0.000000000
 301007000  0.915605568  0.000000000
 304506500  0.919728384  0.000000000
 308006000  0.929625920  0.000000000
 311505500  0.950631168  0.000000000
 315005000  0.977818944  0.000000000
 318504500  0.997822720  0.000000000
 322004000  1.007884383  0.000000000
 325503500  1.016632318  0.000000000
 329003000  1.015493155  0.000000000
 332502500  1.004129648  0.000000000
 336002000  0.997637632  0.000000000
 339501500  0.991264064  0.000000000
 343001000  0.986742080  0.000000000
 346500500  0.994007168  0.000000000
 350000000  1.005574346  0.000000000
