!File created by NanoVNA
# Hz S RI R 50
     50000  1.001003146 -0.019193186
   3549500 -0.107301976 -0.872773696
   7049000 -0.230894560  0.677145024
  10548500  0.796319680  0.242864832
  14048000  0.368597184 -0.690531904
  17547500 -0.470218624  0.245775280
  21047000  0.570668288  0.459792000
  24546500  0.652891968 -0.398218912
  28046000 -0.414162336 -0.205845744
  31545500  0.363118304  0.482994720
  35045000  0.712600832 -0.114519704
  38544500 -0.101732152 -0.454026880
  42044000  0.148913120  0.132147328
  45543500  0.589567296  0.172941344
  49043000  0.342270400 -0.528268800
  52542500 -0.146093504  0.146583728
  56042000  0.260499216  0.208549984
  59541500  0.508067264 -0.251662016
  63041000 -0.152862656 -0.296963296
  66540500  0.074375216  0.239698416
  70040000  0.442142656  0.020186224
  73539500  0.145627760 -0.399831392
  77039000 -0.103640016  0.278067008
  80538500  0.203102304  0.000000000
  84038000  0.206062768  0.000000000
  87537500  0.198441104  0.000000000
  91037000  0.201091600  0.000000000
  94536500  0.206339008  0.000000000
  98036000  0.202849568  0.000000000
 101535500  0.200519776  0.000000000
 105035000  0.205804592  0.000000000
 108534500  0.212352064  0.000000000
 112034000  0.208103024  0.000000000
 115533500  0.206725024  0.000000000
 119033000  0.206468640  0.000000000
 122532500  0.198447360  0.000000000
 126032000  0.201777584  0.000000000
 129531500  0.204877840  0.000000000
 133031000  0.201424352  0.000000000
 136530500  0.203846672  0.000000000
 140030000  0.201447776  0.000000000
 143529500  0.196928128  0.000000000
 147029000  0.193482800  0.000000000
 150528500  0.192914256  0.000000000
 154028000  0.200293552  0.000000000
 157527500  0.206504272  0.000000000
 161027000  0.210867680  0.000000000
 164526500  0.205570944  0.000000000
 168026000  0.197569520  0.000000000
 171525500  0.202935952  0.000000000
 175025000  0.203362288  0.000000000
 178524500  0.201516880  0.000000000
 182024000  0.203740960  0.000000000
 185523500  0.202177248  0.000000000
 189023000  0.205359072  0.000000000
 192522500  0.203561296  0.000000000
 196022000  0.199362032  0.000000000
 199521500  0.200439392  0.000000000
 203021000  0.195667200  0.000000000
 206520500  0.197376544  0.000000000
 210020000  0.200402832  0.000000000
 213519500  0.195641040  0.000000000
 217019000  0.197834432  0.000000000
 220518500  0.199801824  0.000000000
 224018000  0.197886896  0.000000000
 227517500  0.202889552  0.000000000
 231017000  0.215530160  0.000000000
 234516500  0.213223968  0.000000000
 238016000  0.195158672  0.000000000
 241515500  0.198725744  0.000000000
 245015000  0.197755504  0.000000000
 248514500  0.186602320  0.000000000
 252014000  0.198863840  0.000000000
 255513500  0.181203184  0.000000000
 259013000  0.201511024  0.000000000
 262512500  0.371117728  0.000000000
 266012000  0.540164224  0.000000000
 269511500  0.596268864  0.000000000
 273011000  0.621713472  0.000000000
 276510500  0.661562432  0.000000000
 280010000  0.721959552  0.000000000
 283509500  0.789085120  0.000000000
 287009000  0.841658048  0.000000000
 290508500  0.890372736  0.000000000
 294008000  0.918200128  0.000000000
 297507500  0.917348416  0.000000000
 301007000  0.915763648  0.000000000
 304506500  0.919934976  0.000000000
 308006000  0.929793856  0.000000000
 311505500  0.950715264  0.000000000
 315005000  0.977832384  0.000000000
 318504500  0.997738880  0.000000000
 322004000  1.007776261  0.000000000
 325503500  1.016511798  0.000000000
 329003000  1.015327454  0.000000000
 332502500  1.004052758  0.000000000
 336002000  0.997670336  0.000000000
 339501500  0.991342912  0.000000000
 343001000  0.986892672  0.000000000
 346500500  0.994179968  0.000000000
 350000000  1.005754233  0.000000000
